CITIFILE A.01.01
#Momentum: B.12.00.024 (*) built: Jan 14 2016 
#Momentum Date and Time: Thu Sep 26 15:02:38 2019

NAME Momentum.SP

#  mode: RF    project: proj    reference: S_50

#eesof Port[1] P1
#eesof Port[2] P2

CONSTANT NBR_OF_PORTS 2

CONSTANT NORMALIZATION 1

VAR freq MAG 19

DATA S[1,1] RI
DATA S[1,2] RI
DATA S[2,1] RI
DATA S[2,2] RI
DATA PORTZ[1] RI
DATA PORTZ[2] RI

VAR_LIST_BEGIN
	 1100000000
	 1187500000
	 1231250000
	 1260416667
	 1275000000
	 1289583333
	 1338194444
	 1362500000
	 1377083333
	 1406250000
	 1450000000
	 1479166667
	 1539930556
	 1600694445
	 1625000000
	 1639583333
	 1676041666
	 1712500000
	 1800000000
VAR_LIST_END

BEGIN
	-0.812872736,	-0.468211809
	-0.910097938,	 0.0147020156
	-0.80027017,	 0.340812599
	-0.540280311,	 0.532964764
	-0.359510793,	 0.464657315
	-0.407181292,	 0.398202861
	 0.0299551444,	 0.41357593
	-0.00221160276,	 0.200268308
	-0.0368896554,	 0.1883851
	-0.00529290103,	 0.133186375
	-0.064978472,	 0.0684413744
	-0.0503282358,	 0.0296728577
	-0.117870455,	-0.0514419932
	-0.538832388,	-0.0717499955
	-0.559846741,	 0.130036558
	-0.538091553,	 0.158843955
	-0.660804487,	 0.38322577
	-0.535040174,	 0.650919442
	-0.0871416902,	 0.892010268
END
BEGIN
	 0.000155499217 ,	 -0.000474096056 
	 -0.00162209504 ,	 -0.00413663333 
	-0.0171965611,	-0.0125222288
	-0.0871077149,	 0.00987819981
	-0.118581329,	 0.144152441
	 0.0805154086,	 0.251696259
	 0.273531104,	-0.320927015
	-0.18675278,	-0.481139776
	-0.446996391,	-0.300028872
	-0.486252521,	 0.280904368
	 0.282727681,	 0.495247949
	 0.563195843,	 0.0237052673
	-0.261882501,	-0.43667739
	-0.118172424,	 0.293843098
	 0.13505584,	 0.233689168
	 0.21635686,	 0.0782306731
	 0.0290184959,	-0.0620110094
	-0.00468112587,	-0.0199778664
	 -0.00249235897 ,	 -0.00140231937 
END
BEGIN
	 0.000155499217 ,	 -0.000474096056 
	 -0.00162209504 ,	 -0.00413663333 
	-0.0171965611,	-0.0125222288
	-0.0871077149,	 0.00987819981
	-0.118581329,	 0.144152441
	 0.0805154086,	 0.251696259
	 0.273531104,	-0.320927015
	-0.18675278,	-0.481139776
	-0.446996391,	-0.300028872
	-0.486252521,	 0.280904368
	 0.282727681,	 0.495247949
	 0.563195843,	 0.0237052673
	-0.261882501,	-0.43667739
	-0.118172424,	 0.293843098
	 0.13505584,	 0.233689168
	 0.21635686,	 0.0782306731
	 0.0290184959,	-0.0620110094
	-0.00468112587,	-0.0199778664
	 -0.00249235897 ,	 -0.00140231937 
END
BEGIN
	-0.812666506,	-0.468798384
	-0.911231565,	 0.0111672039
	-0.810143391,	 0.332170088
	-0.582480384,	 0.532997428
	-0.416274759,	 0.518233631
	-0.39138783,	 0.491593003
	 0.0934398205,	 0.366699396
	-0.0054719582,	 0.138893325
	-0.0614096952,	 0.150134298
	-0.0218558926,	 0.125980903
	-0.081153565,	 0.0546974726
	-0.0778683804,	 0.030189577
	-0.120785853,	-0.0372669115
	-0.535626364,	-0.0429804192
	-0.528451537,	 0.15567783
	-0.494211628,	 0.160245071
	-0.656702477,	 0.362515025
	-0.538856624,	 0.642588617
	-0.0894001844,	 0.891135485
END
BEGIN
	 50 ,	 0 
	 50 ,	 0 
	 50 ,	 0 
	 50 ,	 0 
	 50 ,	 0 
	 50 ,	 0 
	 50 ,	 0 
	 50 ,	 0 
	 50 ,	 0 
	 50 ,	 0 
	 50 ,	 0 
	 50 ,	 0 
	 50 ,	 0 
	 50 ,	 0 
	 50 ,	 0 
	 50 ,	 0 
	 50 ,	 0 
	 50 ,	 0 
	 50 ,	 0 
END
BEGIN
	 50 ,	 0 
	 50 ,	 0 
	 50 ,	 0 
	 50 ,	 0 
	 50 ,	 0 
	 50 ,	 0 
	 50 ,	 0 
	 50 ,	 0 
	 50 ,	 0 
	 50 ,	 0 
	 50 ,	 0 
	 50 ,	 0 
	 50 ,	 0 
	 50 ,	 0 
	 50 ,	 0 
	 50 ,	 0 
	 50 ,	 0 
	 50 ,	 0 
	 50 ,	 0 
END
