CITIFILE A.01.01
#Momentum: B.12.00.024 (*) built: Jan 14 2016 
#Momentum Date and Time: Thu Sep 26 15:02:38 2019

NAME Momentum.SP

#  mode: RF    reference: S_50

#eesof Port[1] P1
#eesof Port[2] P2

CONSTANT NBR_OF_PORTS 2

CONSTANT NORMALIZATION 1

VAR freq MAG 497

DATA S[1,1] RI
DATA S[1,2] RI
DATA S[2,1] RI
DATA S[2,2] RI
DATA PORTZ[1] RI
DATA PORTZ[2] RI

VAR_LIST_BEGIN
	 1100000000
	 1105468750
	 1110937500
	 1116406250
	 1121875000
	 1127343750
	 1132812500
	 1138281250
	 1143750000
	 1149218750
	 1154687500
	 1160156250
	 1165625000
	 1171093750
	 1176562500
	 1182031250
	 1187500000
	 1192968750
	 1198437500
	 1203906250
	 1209375000
	 1212109375
	 1214843750
	 1217578125
	 1220312500
	 1223046875
	 1225781250
	 1228515625
	 1231250000
	 1233072917
	 1234895833
	 1236718750
	 1238541667
	 1240364583
	 1242187500
	 1244010417
	 1245833334
	 1246744792
	 1247656250
	 1248567709
	 1249479167
	 1250390625
	 1251302084
	 1252213542
	 1253125000
	 1254036459
	 1254947917
	 1255859375
	 1256770834
	 1257226563
	 1257682292
	 1258138021
	 1258593750
	 1259049479
	 1259505209
	 1259960938
	 1260416667
	 1260872396
	 1261328125
	 1261783854
	 1262239584
	 1262695313
	 1263151042
	 1263606771
	 1264062500
	 1264518229
	 1264973959
	 1265429688
	 1265885417
	 1266341146
	 1266796875
	 1267252604
	 1267708334
	 1268164063
	 1268619792
	 1269075521
	 1269531250
	 1269986979
	 1270442708
	 1270898438
	 1271354167
	 1271809896
	 1272265625
	 1272721354
	 1273177083
	 1273632813
	 1274088542
	 1274544271
	 1275000000
	 1275455729
	 1275911458
	 1276367187
	 1276822917
	 1277278646
	 1277734375
	 1278190104
	 1278645833
	 1279101562
	 1279557292
	 1280013021
	 1280468750
	 1280924479
	 1281380208
	 1281835937
	 1282291667
	 1282747396
	 1283203125
	 1283658854
	 1284114583
	 1284570312
	 1285026041
	 1285481771
	 1285937500
	 1286393229
	 1286848958
	 1287304687
	 1287760416
	 1288216146
	 1288671875
	 1289127604
	 1289583333
	 1290342882
	 1291102430
	 1291861979
	 1292621527
	 1293381076
	 1294140625
	 1294900173
	 1295659722
	 1296419270
	 1297178819
	 1297938368
	 1298697916
	 1299457465
	 1300217014
	 1300976562
	 1301736111
	 1303255208
	 1304774305
	 1306293402
	 1307812500
	 1309331597
	 1310850694
	 1312369791
	 1313888889
	 1315407986
	 1316927083
	 1318446180
	 1319965277
	 1320724826
	 1321484375
	 1322243923
	 1323003472
	 1323763020
	 1324522569
	 1325282118
	 1326041666
	 1326801215
	 1327560763
	 1328320312
	 1329079861
	 1329839409
	 1330598958
	 1331358507
	 1332118055
	 1332877604
	 1333637152
	 1334396701
	 1335156250
	 1335915798
	 1336675347
	 1337434895
	 1338194444
	 1338953993
	 1339713541
	 1340473090
	 1341232639
	 1341992187
	 1342751736
	 1343511284
	 1344270833
	 1345030382
	 1345789930
	 1346549479
	 1347309028
	 1348068576
	 1348828125
	 1349587673
	 1350347222
	 1351106771
	 1351866319
	 1352625868
	 1353385417
	 1354144965
	 1354904514
	 1355664062
	 1356423611
	 1357183160
	 1357942708
	 1358702257
	 1359461806
	 1360221354
	 1360980903
	 1361740451
	 1362500000
	 1363411458
	 1364322917
	 1365234375
	 1366145833
	 1367057292
	 1367968750
	 1368880208
	 1369791667
	 1370703125
	 1371614583
	 1372526041
	 1373437500
	 1374348958
	 1375260416
	 1376171875
	 1377083333
	 1377994791
	 1378906250
	 1379817708
	 1380729166
	 1381640625
	 1382552083
	 1383463541
	 1384375000
	 1385286458
	 1386197916
	 1387109375
	 1388020833
	 1388932291
	 1389843750
	 1390755208
	 1391666667
	 1392578125
	 1393489583
	 1394401042
	 1395312500
	 1396223958
	 1397135417
	 1398046875
	 1398958333
	 1399869792
	 1400781250
	 1401692708
	 1402604167
	 1403515625
	 1404427083
	 1405338542
	 1406250000
	 1407617188
	 1408984375
	 1410351563
	 1411718750
	 1413085938
	 1414453125
	 1415820313
	 1417187500
	 1418554688
	 1419921875
	 1421289063
	 1422656250
	 1424023438
	 1425390625
	 1426757813
	 1428125000
	 1429492188
	 1430859375
	 1432226563
	 1433593750
	 1434960938
	 1436328125
	 1437695313
	 1439062500
	 1440429688
	 1441796875
	 1443164063
	 1444531250
	 1445898438
	 1447265625
	 1448632813
	 1450000000
	 1451822917
	 1453645833
	 1455468750
	 1457291667
	 1459114583
	 1460937500
	 1462760417
	 1464583334
	 1465494792
	 1466406250
	 1467317709
	 1468229167
	 1469140625
	 1470052084
	 1470963542
	 1471875000
	 1472786459
	 1473697917
	 1474609375
	 1475520834
	 1476432292
	 1477343750
	 1478255209
	 1479166667
	 1480116103
	 1481065539
	 1482014974
	 1482964410
	 1483913846
	 1484863282
	 1485812717
	 1486762153
	 1487711589
	 1488661025
	 1489610460
	 1490559896
	 1491509332
	 1492458768
	 1493408203
	 1494357639
	 1496256511
	 1498155382
	 1500054254
	 1501953125
	 1503851997
	 1505750868
	 1507649740
	 1509548612
	 1510498047
	 1511447483
	 1512396919
	 1513346355
	 1514295790
	 1515245226
	 1516194662
	 1517144098
	 1518093533
	 1519042969
	 1519992405
	 1520941841
	 1521891276
	 1522840712
	 1523790148
	 1524739584
	 1525689020
	 1526638455
	 1527587891
	 1528537327
	 1529486763
	 1530436198
	 1531385634
	 1532335070
	 1533284506
	 1534233941
	 1535183377
	 1536132813
	 1537082249
	 1538031684
	 1538981120
	 1539930556
	 1540879992
	 1541829428
	 1542778863
	 1543728299
	 1544677735
	 1545627171
	 1546576606
	 1547526042
	 1548475478
	 1549424914
	 1550374349
	 1551323785
	 1552273221
	 1553222657
	 1554172092
	 1555121528
	 1556070964
	 1557020400
	 1557969836
	 1558919271
	 1559868707
	 1560818143
	 1561767579
	 1562717014
	 1563666450
	 1564615886
	 1565565322
	 1566514757
	 1567464193
	 1568413629
	 1569363065
	 1570312501
	 1572211372
	 1574110244
	 1576009115
	 1577907987
	 1579806858
	 1581705730
	 1583604601
	 1585503473
	 1587402344
	 1589301216
	 1591200087
	 1593098959
	 1594997830
	 1596896702
	 1598795573
	 1600694445
	 1602213542
	 1603732639
	 1605251737
	 1606770834
	 1608289931
	 1609809028
	 1611328125
	 1612847223
	 1614366320
	 1615885417
	 1617404514
	 1618923611
	 1620442708
	 1621961806
	 1623480903
	 1625000000
	 1626822917
	 1628645833
	 1630468750
	 1632291667
	 1633203125
	 1634114583
	 1635026041
	 1635937500
	 1636848958
	 1637760416
	 1638671875
	 1639583333
	 1640722656
	 1641861979
	 1643001302
	 1644140625
	 1645279948
	 1646419270
	 1647558593
	 1648697916
	 1649837239
	 1650976562
	 1652115885
	 1653255208
	 1654394531
	 1655533854
	 1656673177
	 1657812500
	 1660091145
	 1662369791
	 1664648437
	 1666927083
	 1669205729
	 1671484374
	 1673763020
	 1676041666
	 1678320312
	 1680598958
	 1682877604
	 1685156250
	 1687434895
	 1689713541
	 1691992187
	 1694270833
	 1696549479
	 1698828125
	 1701106771
	 1703385417
	 1705664062
	 1707942708
	 1710221354
	 1712500000
	 1717968750
	 1723437500
	 1728906250
	 1734375000
	 1739843750
	 1745312500
	 1750781250
	 1756250000
	 1761718750
	 1767187500
	 1772656250
	 1778125000
	 1783593750
	 1789062500
	 1794531250
	 1800000000
VAR_LIST_END

BEGIN
	-0.81287,	-0.46821
	-0.82493,	-0.44423
	-0.83647,	-0.41949
	-0.84743,	-0.39397
	-0.85777,	-0.36767
	-0.86744,	-0.34055
	-0.8764,	-0.31262
	-0.88457,	-0.28385
	-0.89189,	-0.25424
	-0.8983,	-0.22376
	-0.90373,	-0.19241
	-0.90807,	-0.16018
	-0.91126,	-0.12704
	-0.91318,	-0.093
	-0.91371,	-0.058031
	-0.91273,	-0.022133
	-0.91009,	 0.014702
	-0.90562,	 0.052475
	-0.89912,	 0.091183
	-0.89036,	 0.13081
	-0.87906,	 0.17134
	-0.87235,	 0.19192
	-0.86487,	 0.21272
	-0.85657,	 0.2337
	-0.84739,	 0.25487
	-0.83725,	 0.27619
	-0.82608,	 0.29764
	-0.81378,	 0.3192
	-0.80027,	 0.34081
	-0.79052,	 0.35522
	-0.78014,	 0.3696
	-0.76908,	 0.38393
	-0.75731,	 0.39818
	-0.74477,	 0.4123
	-0.73141,	 0.42626
	-0.71716,	 0.43997
	-0.70198,	 0.45338
	-0.69402,	 0.45995
	-0.6858,	 0.4664
	-0.67731,	 0.47272
	-0.66855,	 0.4789
	-0.65951,	 0.48492
	-0.65018,	 0.49075
	-0.64055,	 0.49638
	-0.63062,	 0.50179
	-0.62039,	 0.50694
	-0.60985,	 0.5118
	-0.599,	 0.51635
	-0.58784,	 0.52054
	-0.58215,	 0.52249
	-0.57638,	 0.52434
	-0.57054,	 0.52608
	-0.56462,	 0.52771
	-0.55864,	 0.52922
	-0.55258,	 0.5306
	-0.54646,	 0.53185
	-0.54028,	 0.53296
	-0.53403,	 0.53393
	-0.52773,	 0.53474
	-0.52137,	 0.5354
	-0.51497,	 0.53589
	-0.50853,	 0.53621
	-0.50205,	 0.53636
	-0.49555,	 0.53631
	-0.48902,	 0.53608
	-0.48247,	 0.53564
	-0.47593,	 0.535
	-0.46939,	 0.53415
	-0.46286,	 0.53308
	-0.45637,	 0.53179
	-0.44991,	 0.53027
	-0.44351,	 0.52851
	-0.43718,	 0.52652
	-0.43094,	 0.5243
	-0.42479,	 0.52183
	-0.41876,	 0.51912
	-0.41286,	 0.51617
	-0.40712,	 0.51298
	-0.40155,	 0.50956
	-0.39617,	 0.50591
	-0.391,	 0.50204
	-0.38606,	 0.49796
	-0.38137,	 0.49367
	-0.37695,	 0.4892
	-0.37282,	 0.48456
	-0.369,	 0.47976
	-0.36549,	 0.47483
	-0.36232,	 0.46979
	-0.35951,	 0.46465
	-0.35705,	 0.45946
	-0.35497,	 0.45422
	-0.35326,	 0.44898
	-0.35194,	 0.44377
	-0.35099,	 0.4386
	-0.35044,	 0.43352
	-0.35025,	 0.42855
	-0.35044,	 0.42373
	-0.35098,	 0.41909
	-0.35186,	 0.41465
	-0.35307,	 0.41045
	-0.35458,	 0.4065
	-0.35638,	 0.40284
	-0.35843,	 0.39948
	-0.36071,	 0.39644
	-0.3632,	 0.39374
	-0.36586,	 0.39139
	-0.36866,	 0.3894
	-0.37158,	 0.38777
	-0.37457,	 0.38652
	-0.37762,	 0.38564
	-0.3807,	 0.38512
	-0.38377,	 0.38498
	-0.3868,	 0.38518
	-0.38978,	 0.38574
	-0.39267,	 0.38663
	-0.39546,	 0.38784
	-0.39812,	 0.38936
	-0.40064,	 0.39117
	-0.403,	 0.39326
	-0.40518,	 0.39561
	-0.40718,	 0.3982
	-0.41005,	 0.403
	-0.41233,	 0.40833
	-0.414,	 0.41412
	-0.41502,	 0.42028
	-0.41539,	 0.42674
	-0.41513,	 0.43343
	-0.41422,	 0.44028
	-0.41269,	 0.44723
	-0.41055,	 0.45423
	-0.40782,	 0.46122
	-0.40452,	 0.46817
	-0.40069,	 0.47504
	-0.39633,	 0.48179
	-0.39148,	 0.48839
	-0.38616,	 0.49481
	-0.3804,	 0.50103
	-0.36765,	 0.51279
	-0.35342,	 0.52352
	-0.33788,	 0.53312
	-0.32121,	 0.5415
	-0.30355,	 0.54859
	-0.28507,	 0.55433
	-0.26589,	 0.55867
	-0.24616,	 0.56158
	-0.22602,	 0.56302
	-0.20559,	 0.56295
	-0.18502,	 0.56138
	-0.16444,	 0.55826
	-0.15419,	 0.55613
	-0.144,	 0.55362
	-0.13387,	 0.55072
	-0.12383,	 0.54744
	-0.1139,	 0.54378
	-0.10409,	 0.53975
	-0.094436,	 0.53535
	-0.084939,	 0.53058
	-0.075625,	 0.52546
	-0.066512,	 0.51998
	-0.057621,	 0.51416
	-0.04897,	 0.50801
	-0.040577,	 0.50154
	-0.032461,	 0.49475
	-0.024639,	 0.48768
	-0.017129,	 0.48032
	-0.009947,	 0.4727
	-0.0031088,	 0.46483
	 0.0033707,	 0.45673
	 0.009478,	 0.44843
	 0.015201,	 0.43994
	 0.020527,	 0.43128
	 0.025448,	 0.42249
	 0.029955,	 0.41357
	 0.034042,	 0.40456
	 0.037703,	 0.39549
	 0.040936,	 0.38637
	 0.04374,	 0.37724
	 0.046115,	 0.36812
	 0.048065,	 0.35904
	 0.049593,	 0.35003
	 0.050709,	 0.3411
	 0.051419,	 0.33229
	 0.051735,	 0.32362
	 0.051669,	 0.31511
	 0.051237,	 0.3068
	 0.050454,	 0.29869
	 0.049338,	 0.29081
	 0.047909,	 0.28318
	 0.046186,	 0.27581
	 0.044192,	 0.26872
	 0.041949,	 0.26192
	 0.039481,	 0.25543
	 0.036811,	 0.24925
	 0.033964,	 0.24339
	 0.030964,	 0.23786
	 0.027837,	 0.23265
	 0.024606,	 0.22778
	 0.021295,	 0.22324
	 0.017929,	 0.21902
	 0.01453,	 0.21513
	 0.011121,	 0.21155
	 0.0077222,	 0.20829
	 0.0043547,	 0.20533
	 0.0010374,	 0.20266
	-0.0022116,	 0.20026
	-0.005997,	 0.19774
	-0.0096339,	 0.19559
	-0.013099,	 0.19377
	-0.016371,	 0.19226
	-0.019433,	 0.19103
	-0.02227,	 0.19006
	-0.024869,	 0.18932
	-0.027222,	 0.18878
	-0.029323,	 0.18841
	-0.031166,	 0.18818
	-0.032751,	 0.18807
	-0.034078,	 0.18805
	-0.035149,	 0.18809
	-0.035971,	 0.18818
	-0.036548,	 0.18828
	-0.03689,	 0.18838
	-0.037005,	 0.18845
	-0.036906,	 0.18849
	-0.036603,	 0.18846
	-0.036111,	 0.18835
	-0.035442,	 0.18815
	-0.034612,	 0.18784
	-0.033636,	 0.18742
	-0.032529,	 0.18688
	-0.031308,	 0.1862
	-0.029989,	 0.18537
	-0.028587,	 0.1844
	-0.027119,	 0.18328
	-0.025602,	 0.18201
	-0.02405,	 0.18058
	-0.02248,	 0.179
	-0.020908,	 0.17726
	-0.019346,	 0.17537
	-0.017811,	 0.17333
	-0.016315,	 0.17115
	-0.014872,	 0.16883
	-0.013494,	 0.16637
	-0.012192,	 0.1638
	-0.010977,	 0.1611
	-0.0098589,	 0.1583
	-0.0088469,	 0.1554
	-0.007949,	 0.15241
	-0.0071724,	 0.14933
	-0.0065233,	 0.1462
	-0.0060069,	 0.143
	-0.0056277,	 0.13976
	-0.0053889,	 0.13648
	-0.0052929,	 0.13318
	-0.0054194,	 0.12821
	-0.005871,	 0.12326
	-0.0066436,	 0.11835
	-0.0077289,	 0.11354
	-0.0091144,	 0.10884
	-0.010783,	 0.1043
	-0.012716,	 0.099954
	-0.014889,	 0.095811
	-0.017276,	 0.091904
	-0.019849,	 0.088253
	-0.022577,	 0.084874
	-0.02543,	 0.081781
	-0.028373,	 0.078982
	-0.031374,	 0.076482
	-0.0344,	 0.074281
	-0.037418,	 0.072378
	-0.040396,	 0.070765
	-0.043304,	 0.069433
	-0.046112,	 0.068367
	-0.048794,	 0.067551
	-0.051325,	 0.066966
	-0.053682,	 0.06659
	-0.055847,	 0.066399
	-0.057802,	 0.066367
	-0.059535,	 0.066467
	-0.061034,	 0.066671
	-0.062294,	 0.06695
	-0.063311,	 0.067274
	-0.064083,	 0.067613
	-0.064614,	 0.06794
	-0.06491,	 0.068225
	-0.064978,	 0.068441
	-0.064739,	 0.068577
	-0.064152,	 0.068487
	-0.063262,	 0.068118
	-0.062117,	 0.067428
	-0.060773,	 0.066378
	-0.059288,	 0.064942
	-0.057726,	 0.0631
	-0.05615,	 0.060841
	-0.055377,	 0.059556
	-0.054625,	 0.058167
	-0.053903,	 0.056676
	-0.053216,	 0.055086
	-0.052574,	 0.053398
	-0.051984,	 0.051617
	-0.051453,	 0.049744
	-0.050988,	 0.047786
	-0.050595,	 0.045746
	-0.05028,	 0.04363
	-0.050049,	 0.041443
	-0.049908,	 0.039192
	-0.049862,	 0.036882
	-0.049914,	 0.034521
	-0.050068,	 0.032115
	-0.050328,	 0.029673
	-0.050715,	 0.027098
	-0.051221,	 0.024499
	-0.051849,	 0.021887
	-0.052599,	 0.019269
	-0.053473,	 0.016655
	-0.054468,	 0.014055
	-0.055585,	 0.011477
	-0.05682,	 0.0089308
	-0.058172,	 0.0064243
	-0.059637,	 0.0039666
	-0.06121,	 0.0015659
	-0.062887,	-0.00076986
	-0.064662,	-0.0030331
	-0.066529,	-0.0052167
	-0.068482,	-0.007314
	-0.070514,	-0.0093189
	-0.07478,	-0.01303
	-0.07926,	-0.016314
	-0.083881,	-0.019146
	-0.088566,	-0.021512
	-0.093233,	-0.023412
	-0.097804,	-0.02486
	-0.10219,	-0.02588
	-0.10633,	-0.026513
	-0.10829,	-0.0267
	-0.11015,	-0.026811
	-0.11192,	-0.026854
	-0.11359,	-0.026839
	-0.11515,	-0.026775
	-0.11659,	-0.026672
	-0.11791,	-0.026542
	-0.1191,	-0.026397
	-0.12017,	-0.026248
	-0.12111,	-0.026108
	-0.12192,	-0.02599
	-0.1226,	-0.025907
	-0.12314,	-0.025873
	-0.12356,	-0.025901
	-0.12385,	-0.026006
	-0.12402,	-0.0262
	-0.12407,	-0.026498
	-0.12401,	-0.026913
	-0.12385,	-0.027458
	-0.12359,	-0.028148
	-0.12325,	-0.028993
	-0.12284,	-0.030006
	-0.12236,	-0.031199
	-0.12184,	-0.032582
	-0.12128,	-0.034165
	-0.1207,	-0.035956
	-0.12013,	-0.037965
	-0.11957,	-0.040196
	-0.11904,	-0.042656
	-0.11857,	-0.045349
	-0.11817,	-0.048278
	-0.11787,	-0.051442
	-0.11767,	-0.054842
	-0.11762,	-0.058476
	-0.11772,	-0.062339
	-0.118,	-0.066426
	-0.11848,	-0.070729
	-0.11918,	-0.075238
	-0.12012,	-0.079943
	-0.12133,	-0.08483
	-0.12281,	-0.089884
	-0.12459,	-0.095089
	-0.12668,	-0.10042
	-0.12911,	-0.10587
	-0.13188,	-0.11141
	-0.13501,	-0.11702
	-0.1385,	-0.12267
	-0.14238,	-0.12834
	-0.14664,	-0.134
	-0.15128,	-0.13963
	-0.15632,	-0.14519
	-0.16175,	-0.15067
	-0.16757,	-0.15603
	-0.17377,	-0.16125
	-0.18036,	-0.16629
	-0.18731,	-0.17114
	-0.19463,	-0.17576
	-0.20229,	-0.18013
	-0.21029,	-0.18422
	-0.2186,	-0.18802
	-0.22721,	-0.1915
	-0.2361,	-0.19465
	-0.24524,	-0.19743
	-0.25462,	-0.19984
	-0.274,	-0.20349
	-0.29402,	-0.2055
	-0.31448,	-0.2058
	-0.33518,	-0.20435
	-0.35591,	-0.20117
	-0.37647,	-0.19627
	-0.39668,	-0.1897
	-0.41635,	-0.18153
	-0.43533,	-0.17185
	-0.45348,	-0.16077
	-0.47066,	-0.14839
	-0.48678,	-0.13485
	-0.50172,	-0.12028
	-0.51542,	-0.10481
	-0.5278,	-0.088588
	-0.53883,	-0.07175
	-0.54664,	-0.057937
	-0.55354,	-0.0439
	-0.55952,	-0.029717
	-0.56457,	-0.015466
	-0.5687,	-0.001225
	-0.57191,	 0.012924
	-0.5742,	 0.026897
	-0.57561,	 0.04061
	-0.57614,	 0.053974
	-0.57584,	 0.066899
	-0.57475,	 0.079293
	-0.57292,	 0.091061
	-0.57042,	 0.1021
	-0.56734,	 0.11234
	-0.56377,	 0.12168
	-0.55984,	 0.13003
	-0.55486,	 0.13867
	-0.54984,	 0.14572
	-0.54513,	 0.15115
	-0.54106,	 0.15501
	-0.53938,	 0.15639
	-0.53801,	 0.15743
	-0.53697,	 0.15817
	-0.53631,	 0.15865
	-0.53606,	 0.1589
	-0.53626,	 0.15898
	-0.53693,	 0.15894
	-0.53809,	 0.15884
	-0.54022,	 0.15872
	-0.54313,	 0.15873
	-0.54679,	 0.15898
	-0.55115,	 0.15958
	-0.55615,	 0.16065
	-0.56172,	 0.16227
	-0.56775,	 0.16451
	-0.57416,	 0.16745
	-0.58084,	 0.1711
	-0.58767,	 0.1755
	-0.59455,	 0.18065
	-0.60139,	 0.18651
	-0.6081,	 0.19308
	-0.61458,	 0.20031
	-0.62079,	 0.20814
	-0.62665,	 0.21653
	-0.63717,	 0.23474
	-0.64591,	 0.25445
	-0.65276,	 0.27521
	-0.65773,	 0.29664
	-0.66089,	 0.31839
	-0.66235,	 0.3402
	-0.66228,	 0.36186
	-0.6608,	 0.38322
	-0.65807,	 0.40416
	-0.65423,	 0.42461
	-0.6494,	 0.44452
	-0.6437,	 0.46384
	-0.63724,	 0.48257
	-0.63009,	 0.5007
	-0.62235,	 0.51823
	-0.61409,	 0.53516
	-0.60535,	 0.55151
	-0.59621,	 0.56729
	-0.5867,	 0.58252
	-0.57688,	 0.59721
	-0.56677,	 0.61138
	-0.5564,	 0.62504
	-0.54582,	 0.63821
	-0.53504,	 0.65091
	-0.50848,	 0.67956
	-0.48118,	 0.70576
	-0.45334,	 0.72971
	-0.42512,	 0.75157
	-0.39664,	 0.77149
	-0.36802,	 0.78959
	-0.33933,	 0.80599
	-0.31065,	 0.8208
	-0.28203,	 0.83411
	-0.25354,	 0.84602
	-0.22521,	 0.8566
	-0.19708,	 0.86593
	-0.16918,	 0.87407
	-0.14154,	 0.88109
	-0.11419,	 0.88705
	-0.087142,	 0.89201
END
BEGIN
	 0.000155499217 ,	 -0.000474096056 
	 0.000155282422 ,	 -0.000536610308 
	 0.000152520143 ,	 -0.000608267839 
	 0.000146376832 ,	 -0.000690532874 
	 0.000135781664 ,	 -0.000785122731 
	 0.00011936176 ,	 -0.00089405413 
	 9.53552957e-005 ,	 -0.00101969808 
	 6.14979567e-005 ,	 -0.00116484476 
	 1.48738333e-005 ,	 -0.00133277983 
	 -4.82814042e-005 ,	 -0.00152737359 
	 -0.000132841785 ,	 -0.00175318399 
	 -0.000245139983 ,	 -0.00201557372 
	 -0.00039343638 ,	 -0.00232083965 
	 -0.000588554012 ,	 -0.00267634958 
	 -0.000844744484 ,	 -0.00309067485 
	 -0.00118087831 ,	 -0.00357369544 
	 -0.00162209504 ,	 -0.00413663333 
	 -0.00220211114 ,	 -0.00479193121 
	 -0.00296647723 ,	 -0.00555282415 
	-0.0039772,	-0.0064323
	-0.0053195,	-0.0074411
	-0.0061502,	-0.0079957
	-0.0071113,	-0.0085832
	-0.0082249,	-0.0092019
	-0.0095173,	-0.0098482
	-0.01102,	-0.010516
	-0.01277,	-0.011195
	-0.014811,	-0.011871
	-0.017197,	-0.012522
	-0.019009,	-0.012927
	-0.021023,	-0.013295
	-0.023263,	-0.013609
	-0.025755,	-0.01385
	-0.028528,	-0.013991
	-0.031616,	-0.014001
	-0.035052,	-0.013838
	-0.038875,	-0.013452
	-0.040943,	-0.013156
	-0.043122,	-0.012779
	-0.045417,	-0.01231
	-0.047834,	-0.011737
	-0.050375,	-0.011047
	-0.053047,	-0.010226
	-0.055851,	-0.0092563
	-0.058792,	-0.0081205
	-0.061871,	-0.006798
	-0.065089,	-0.0052663
	-0.068446,	-0.0035007
	-0.071938,	-0.001474
	-0.073733,	-0.00035347
	-0.075561,	 0.00084366
	-0.077418,	 0.0021216
	-0.079305,	 0.0034845
	-0.08122,	 0.004937
	-0.08316,	 0.0064836
	-0.085123,	 0.008129
	-0.087108,	 0.0098782
	-0.08911,	 0.011736
	-0.091127,	 0.013708
	-0.093155,	 0.015799
	-0.09519,	 0.018015
	-0.097226,	 0.02036
	-0.09926,	 0.02284
	-0.10128,	 0.025461
	-0.10329,	 0.028228
	-0.10527,	 0.031146
	-0.10723,	 0.03422
	-0.10915,	 0.037455
	-0.11102,	 0.040856
	-0.11283,	 0.044426
	-0.11458,	 0.04817
	-0.11624,	 0.05209
	-0.11782,	 0.056189
	-0.11929,	 0.060469
	-0.12064,	 0.064931
	-0.12186,	 0.069575
	-0.12293,	 0.0744
	-0.12384,	 0.079405
	-0.12458,	 0.084584
	-0.12512,	 0.089934
	-0.12544,	 0.095448
	-0.12555,	 0.10111
	-0.1254,	 0.10693
	-0.125,	 0.11288
	-0.12432,	 0.11896
	-0.12336,	 0.12514
	-0.12208,	 0.13141
	-0.12049,	 0.13775
	-0.11858,	 0.14415
	-0.11632,	 0.15057
	-0.11371,	 0.157
	-0.11076,	 0.16342
	-0.10744,	 0.16979
	-0.10377,	 0.1761
	-0.099741,	 0.18231
	-0.095355,	 0.1884
	-0.090622,	 0.19434
	-0.08555,	 0.20011
	-0.08015,	 0.20568
	-0.074436,	 0.21103
	-0.068425,	 0.21614
	-0.062134,	 0.22098
	-0.055582,	 0.22553
	-0.048793,	 0.22979
	-0.041788,	 0.23374
	-0.034592,	 0.23736
	-0.027229,	 0.24064
	-0.019723,	 0.24359
	-0.012099,	 0.24619
	-0.0043825,	 0.24844
	 0.003403,	 0.25034
	 0.011234,	 0.2519
	 0.019088,	 0.25312
	 0.026945,	 0.25401
	 0.034784,	 0.25457
	 0.042586,	 0.25481
	 0.050335,	 0.25475
	 0.058016,	 0.2544
	 0.065614,	 0.25376
	 0.073118,	 0.25285
	 0.080515,	 0.25169
	 0.092586,	 0.24922
	 0.1043,	 0.24614
	 0.11564,	 0.2425
	 0.12659,	 0.23837
	 0.13713,	 0.2338
