CITIFILE A.01.01
#Momentum: B.12.00.024 (*) built: Jan 14 2016 
#Momentum Date and Time: Thu Sep 26 15:21:01 2019

NAME Momentum.SP

#  mode: RF    reference: S_50

#eesof Port[1] P1
#eesof Port[2] P2

CONSTANT NBR_OF_PORTS 2

CONSTANT NORMALIZATION 1

VAR freq MAG 389

DATA S[1,1] RI
DATA S[1,2] RI
DATA S[2,1] RI
DATA S[2,2] RI
DATA PORTZ[1] RI
DATA PORTZ[2] RI

VAR_LIST_BEGIN
	 1100000000
	 1103645833
	 1107291667
	 1110937500
	 1114583333
	 1118229167
	 1121875000
	 1125520833
	 1129166667
	 1132812500
	 1136458333
	 1140104167
	 1143750000
	 1147395833
	 1151041667
	 1154687500
	 1158333334
	 1165625000
	 1172916667
	 1180208334
	 1187500000
	 1191145834
	 1194791667
	 1198437500
	 1202083334
	 1205729167
	 1209375000
	 1213020834
	 1216666667
	 1220312500
	 1223958334
	 1227604167
	 1231250000
	 1233072917
	 1234895834
	 1236718750
	 1238541667
	 1240364584
	 1242187500
	 1244010417
	 1245833334
	 1247656250
	 1249479167
	 1251302083
	 1253125000
	 1254947917
	 1256770833
	 1258593750
	 1260416667
	 1262239583
	 1264062500
	 1265885417
	 1267708333
	 1268619792
	 1269531250
	 1270442708
	 1271354167
	 1272265625
	 1273177083
	 1274088542
	 1275000000
	 1276215278
	 1277430556
	 1278645833
	 1279861111
	 1280468750
	 1281076389
	 1281684028
	 1282291667
	 1282899306
	 1283506944
	 1284114583
	 1284722222
	 1285329861
	 1285937500
	 1286545139
	 1287152778
	 1287760417
	 1288368056
	 1288975694
	 1289583333
	 1290190972
	 1290798611
	 1291406250
	 1292013889
	 1292621528
	 1293229167
	 1293836806
	 1294444445
	 1295052083
	 1295659722
	 1296267361
	 1296875000
	 1297482639
	 1298090278
	 1298697917
	 1299305556
	 1300520833
	 1301736111
	 1302951389
	 1304166667
	 1304774306
	 1305381945
	 1305989583
	 1306597222
	 1307204861
	 1307812500
	 1308420139
	 1309027778
	 1309635417
	 1310243056
	 1310850695
	 1311458333
	 1312065972
	 1312673611
	 1313281250
	 1313888889
	 1314496528
	 1315104167
	 1315711806
	 1316319445
	 1316927083
	 1317534722
	 1318142361
	 1318750000
	 1319357639
	 1319965278
	 1320572917
	 1321180556
	 1321788194
	 1322395833
	 1323003472
	 1323611111
	 1324218750
	 1324826389
	 1325434028
	 1326041667
	 1326649305
	 1327256944
	 1327864583
	 1328472222
	 1329079861
	 1329687500
	 1330295139
	 1330902778
	 1331510416
	 1332118055
	 1332725694
	 1333333333
	 1334548611
	 1335763889
	 1336979166
	 1338194444
	 1339409722
	 1340625000
	 1341840277
	 1343055555
	 1344270833
	 1345486111
	 1346701389
	 1347916666
	 1349131944
	 1350347222
	 1351562500
	 1352777778
	 1353993055
	 1355208333
	 1356423611
	 1357638889
	 1358854166
	 1360069444
	 1361284722
	 1362500000
	 1363715278
	 1364930555
	 1366145833
	 1367361111
	 1368576389
	 1369791666
	 1371006944
	 1372222222
	 1373437500
	 1374652778
	 1375868055
	 1377083333
	 1378298611
	 1379513889
	 1380729166
	 1381944444
	 1383159722
	 1384375000
	 1385590278
	 1386805555
	 1388020833
	 1389236111
	 1390451389
	 1391666667
	 1392881944
	 1394097222
	 1395312500
	 1396527778
	 1397743055
	 1398958333
	 1400173611
	 1401388889
	 1402604167
	 1403819444
	 1405034722
	 1406250000
	 1407465278
	 1408680555
	 1409895833
	 1411111111
	 1412326389
	 1413541667
	 1414756944
	 1415972222
	 1417187500
	 1418402778
	 1419618055
	 1420833333
	 1422048611
	 1423263889
	 1424479167
	 1425694444
	 1426909722
	 1428125000
	 1429340278
	 1430555556
	 1431770833
	 1432986111
	 1434201389
	 1435416667
	 1436631944
	 1437847222
	 1439062500
	 1440277778
	 1442708333
	 1445138889
	 1447569444
	 1450000000
	 1451822917
	 1453645833
	 1455468750
	 1457291667
	 1459114583
	 1460937500
	 1462760417
	 1464583334
	 1466406250
	 1468229167
	 1470052084
	 1471875000
	 1473697917
	 1475520834
	 1477343750
	 1479166667
	 1480989584
	 1482812500
	 1484635417
	 1486458334
	 1488281250
	 1490104167
	 1491927084
	 1493750001
	 1495572917
	 1497395834
	 1499218751
	 1501041667
	 1502864584
	 1504687501
	 1506510417
	 1508333334
	 1510156251
	 1511979167
	 1513802084
	 1515625001
	 1517447917
	 1519270834
	 1521093751
	 1522916667
	 1524739584
	 1526562501
	 1528385417
	 1530208334
	 1532031251
	 1533854167
	 1535677084
	 1537500001
	 1539322917
	 1541145834
	 1542968750
	 1544791667
	 1546614584
	 1548437500
	 1550260417
	 1552083334
	 1553906250
	 1555729167
	 1557552084
	 1559375000
	 1561197917
	 1563020834
	 1564843750
	 1566666667
	 1567578125
	 1568489584
	 1569401042
	 1570312500
	 1571223959
	 1572135417
	 1573046875
	 1573958334
	 1574869792
	 1575781250
	 1576692709
	 1577604167
	 1578515625
	 1579427084
	 1580338542
	 1581250001
	 1583072917
	 1584895834
	 1586718751
	 1588541667
	 1590364584
	 1592187501
	 1594010417
	 1595833334
	 1597656251
	 1599479167
	 1601302084
	 1603125001
	 1604947917
	 1606770834
	 1608593751
	 1610416668
	 1612239584
	 1614062501
	 1615885418
	 1617708334
	 1619531251
	 1621354168
	 1623177084
	 1625000001
	 1626822918
	 1628645834
	 1630468751
	 1632291668
	 1634114584
	 1635937501
	 1637760418
	 1639583334
	 1643229168
	 1646875001
	 1650520834
	 1654166668
	 1657812501
	 1661458334
	 1665104167
	 1668750001
	 1672395834
	 1676041667
	 1679687501
	 1683333334
	 1686979167
	 1690625001
	 1694270834
	 1697916667
	 1701562501
	 1705208334
	 1708854167
	 1712500001
	 1716145834
	 1719791667
	 1723437500
	 1727083334
	 1730729167
	 1734375000
	 1738020834
	 1741666667
	 1748958334
	 1756250000
	 1763541667
	 1770833334
	 1778125000
	 1785416667
	 1792708333
	 1800000000
VAR_LIST_END

BEGIN
	-0.85766,	-0.37201
	-0.8643,	-0.35429
	-0.87063,	-0.33624
	-0.87665,	-0.31785
	-0.88233,	-0.29914
	-0.88766,	-0.2801
	-0.89263,	-0.26072
	-0.89721,	-0.24101
	-0.9014,	-0.22097
	-0.90517,	-0.2006
	-0.9085,	-0.17989
	-0.91138,	-0.15885
	-0.91378,	-0.13749
	-0.91569,	-0.1158
	-0.91707,	-0.093783
	-0.91791,	-0.071445
	-0.91818,	-0.048789
	-0.91691,	-0.002542
	-0.91303,	 0.044911
	-0.9063,	 0.093509
	-0.89644,	 0.14317
	-0.89024,	 0.16836
	-0.88314,	 0.19378
	-0.87508,	 0.21941
	-0.86604,	 0.24521
	-0.85595,	 0.27118
	-0.84476,	 0.29727
	-0.83241,	 0.32347
	-0.81884,	 0.34972
	-0.80398,	 0.37599
	-0.78777,	 0.40223
	-0.77013,	 0.42838
	-0.75097,	 0.45438
	-0.7408,	 0.4673
	-0.73021,	 0.48014
	-0.71921,	 0.49291
	-0.70776,	 0.50558
	-0.69588,	 0.51814
	-0.68353,	 0.53058
	-0.67071,	 0.54289
	-0.6574,	 0.55503
	-0.6436,	 0.567
	-0.62928,	 0.57877
	-0.61443,	 0.59033
	-0.59905,	 0.60163
	-0.58311,	 0.61267
	-0.5666,	 0.6234
	-0.54951,	 0.6338
	-0.53182,	 0.64383
	-0.51353,	 0.65345
	-0.49462,	 0.66262
	-0.47509,	 0.6713
	-0.45491,	 0.67943
	-0.44458,	 0.68327
	-0.4341,	 0.68696
	-0.42345,	 0.69048
	-0.41264,	 0.69383
	-0.40166,	 0.697
	-0.39053,	 0.69998
	-0.37924,	 0.70276
	-0.36779,	 0.70534
	-0.35227,	 0.70843
	-0.33648,	 0.71112
	-0.32043,	 0.71337
	-0.3041,	 0.71517
	-0.29585,	 0.71589
	-0.28753,	 0.71648
	-0.27915,	 0.71694
	-0.27072,	 0.71728
	-0.26222,	 0.71747
	-0.25367,	 0.71753
	-0.24507,	 0.71745
	-0.23642,	 0.71722
	-0.22771,	 0.71684
	-0.21897,	 0.7163
	-0.21018,	 0.71561
	-0.20135,	 0.71475
	-0.19248,	 0.71373
	-0.18358,	 0.71254
	-0.17465,	 0.71117
	-0.16569,	 0.70963
	-0.15672,	 0.7079
	-0.14772,	 0.70599
	-0.13872,	 0.70389
	-0.1297,	 0.7016
	-0.12069,	 0.69911
	-0.11168,	 0.69642
	-0.10267,	 0.69352
	-0.093693,	 0.69042
	-0.084729,	 0.68711
	-0.075794,	 0.68358
	-0.066895,	 0.67984
	-0.058039,	 0.67587
	-0.049235,	 0.67169
	-0.04049,	 0.66728
	-0.031813,	 0.66265
	-0.023213,	 0.65779
	-0.006278,	 0.64739
	 0.010238,	 0.63607
	 0.026256,	 0.62383
	 0.041691,	 0.61069
	 0.049163,	 0.60379
	 0.056457,	 0.59666
	 0.063561,	 0.58933
	 0.070464,	 0.58178
	 0.077155,	 0.57404
	 0.083623,	 0.56609
	 0.089857,	 0.55795
	 0.095846,	 0.54963
	 0.10157,	 0.54114
	 0.10704,	 0.53248
	 0.11223,	 0.52367
	 0.11713,	 0.51471
	 0.12174,	 0.50562
	 0.12604,	 0.4964
	 0.13003,	 0.48708
	 0.1337,	 0.47767
	 0.13705,	 0.46817
	 0.14006,	 0.45862
	 0.14273,	 0.44901
	 0.14506,	 0.43937
	 0.14705,	 0.42971
	 0.14868,	 0.42006
	 0.14997,	 0.41042
	 0.15091,	 0.40082
	 0.1515,	 0.39127
	 0.15175,	 0.3818
	 0.15165,	 0.37241
	 0.15122,	 0.36313
	 0.15045,	 0.35398
	 0.14936,	 0.34496
	 0.14795,	 0.3361
	 0.14624,	 0.32742
	 0.14423,	 0.31893
	 0.14193,	 0.31064
	 0.13936,	 0.30256
	 0.13652,	 0.29472
	 0.13345,	 0.28713
	 0.13014,	 0.27978
	 0.12661,	 0.27271
	 0.12289,	 0.2659
	 0.11898,	 0.25938
	 0.1149,	 0.25315
	 0.11068,	 0.24721
	 0.10633,	 0.24158
	 0.10186,	 0.23624
	 0.097298,	 0.23121
	 0.092655,	 0.22648
	 0.08795,	 0.22206
	 0.078426,	 0.21412
	 0.068857,	 0.20737
	 0.059366,	 0.20178
	 0.05007,	 0.19727
	 0.04107,	 0.1938
	 0.032459,	 0.19128
	 0.024314,	 0.18964
	 0.016702,	 0.18879
	 0.0096737,	 0.18863
	 0.0032699,	 0.18909
	-0.0024815,	 0.19005
	-0.0075632,	 0.19145
	-0.011968,	 0.19319
	-0.015699,	 0.19519
	-0.018765,	 0.19738
	-0.021183,	 0.19967
	-0.022977,	 0.20201
	-0.024173,	 0.20433
	-0.024806,	 0.20657
	-0.024908,	 0.2087
	-0.02452,	 0.21066
	-0.023679,	 0.21241
	-0.022428,	 0.21393
	-0.020807,	 0.21519
	-0.018859,	 0.21615
	-0.016625,	 0.21681
	-0.014148,	 0.21715
	-0.011467,	 0.21716
	-0.0086216,	 0.21684
	-0.005651,	 0.21617
	-0.0025919,	 0.21517
	 0.00052023,	 0.21383
	 0.0036516,	 0.21216
	 0.0067703,	 0.21016
	 0.0098459,	 0.20786
	 0.01285,	 0.20526
	 0.015757,	 0.20237
	 0.018542,	 0.19921
	 0.021183,	 0.1958
	 0.023659,	 0.19216
	 0.025953,	 0.1883
	 0.028048,	 0.18425
	 0.029931,	 0.18003
	 0.03159,	 0.17566
	 0.033014,	 0.17115
	 0.034196,	 0.16654
	 0.03513,	 0.16185
	 0.035813,	 0.15709
	 0.036241,	 0.1523
	 0.036415,	 0.14748
	 0.036337,	 0.14266
	 0.036009,	 0.13787
	 0.035436,	 0.13312
	 0.034626,	 0.12843
	 0.033585,	 0.12382
	 0.032322,	 0.11931
	 0.030849,	 0.1149
	 0.029175,	 0.11063
	 0.027315,	 0.1065
	 0.02528,	 0.10252
	 0.023085,	 0.098705
	 0.020745,	 0.095063
	 0.018275,	 0.091603
	 0.015691,	 0.088332
	 0.013008,	 0.085256
	 0.010242,	 0.082378
	 0.0074104,	 0.079702
	 0.0045282,	 0.077229
	 0.0016115,	 0.074959
	-0.001324,	 0.072891
	-0.004263,	 0.071023
	-0.0071907,	 0.06935
	-0.010093,	 0.067869
	-0.012955,	 0.066573
	-0.015766,	 0.065456
	-0.018511,	 0.06451
	-0.021181,	 0.063726
	-0.023764,	 0.063095
	-0.026251,	 0.062608
	-0.028632,	 0.062253
	-0.030901,	 0.06202
	-0.033049,	 0.061897
	-0.035072,	 0.061872
	-0.036964,	 0.061934
	-0.038722,	 0.062068
	-0.040342,	 0.062264
	-0.041824,	 0.062509
	-0.043166,	 0.06279
	-0.045431,	 0.06341
	-0.04715,	 0.06403
	-0.048349,	 0.064557
	-0.049069,	 0.064907
	-0.049323,	 0.065007
	-0.049362,	 0.064936
	-0.049212,	 0.064669
	-0.048905,	 0.064183
	-0.048472,	 0.063462
	-0.047949,	 0.062492
	-0.047369,	 0.061264
	-0.046768,	 0.059772
	-0.046183,	 0.058017
	-0.045648,	 0.056001
	-0.045198,	 0.053731
	-0.044865,	 0.05122
	-0.044681,	 0.048483
	-0.044676,	 0.04554
	-0.044875,	 0.042412
	-0.045301,	 0.039125
	-0.045975,	 0.035708
	-0.046913,	 0.032191
	-0.048126,	 0.028607
	-0.049624,	 0.024989
	-0.051409,	 0.021372
	-0.05348,	 0.017791
	-0.055832,	 0.01428
	-0.058454,	 0.010875
	-0.061332,	 0.007606
	-0.064446,	 0.0045053
	-0.067773,	 0.0016006
	-0.071285,	-0.0010831
	-0.074953,	-0.0035242
	-0.078741,	-0.0057053
	-0.082612,	-0.0076134
	-0.086528,	-0.0092405
	-0.090447,	-0.010584
	-0.094327,	-0.011646
	-0.098126,	-0.012436
	-0.1018,	-0.012968
	-0.10531,	-0.013263
	-0.10861,	-0.013348
	-0.11168,	-0.013256
	-0.11447,	-0.013027
	-0.11695,	-0.012705
	-0.11911,	-0.012341
	-0.12091,	-0.011991
	-0.12235,	-0.011716
	-0.12343,	-0.01158
	-0.12415,	-0.011653
	-0.12451,	-0.012004
	-0.12454,	-0.012707
	-0.12429,	-0.013835
	-0.12378,	-0.01546
	-0.12308,	-0.017652
	-0.12225,	-0.020476
	-0.12138,	-0.023992
	-0.12056,	-0.028252
	-0.1199,	-0.033296
	-0.1195,	-0.039154
	-0.1195,	-0.045839
	-0.12003,	-0.053348
	-0.12123,	-0.061657
	-0.12323,	-0.070723
	-0.12618,	-0.08048
	-0.13021,	-0.090837
	-0.13545,	-0.10168
	-0.14201,	-0.11287
	-0.14582,	-0.11855
	-0.14999,	-0.12426
	-0.15453,	-0.12997
	-0.15946,	-0.13567
	-0.16477,	-0.14132
	-0.17046,	-0.1469
	-0.17655,	-0.15239
	-0.18302,	-0.15777
	-0.18989,	-0.16299
	-0.19713,	-0.16805
	-0.20475,	-0.17292
	-0.21273,	-0.17756
	-0.22107,	-0.18195
	-0.22976,	-0.18608
	-0.23877,	-0.18992
	-0.2481,	-0.19344
	-0.26762,	-0.19947
	-0.28817,	-0.20403
	-0.30956,	-0.20699
	-0.33161,	-0.20826
	-0.35413,	-0.20779
	-0.3769,	-0.20555
	-0.39973,	-0.20153
	-0.42244,	-0.19576
	-0.44484,	-0.1883
	-0.46677,	-0.17921
	-0.48809,	-0.16858
	-0.50866,	-0.15652
	-0.52837,	-0.14313
	-0.54714,	-0.12855
	-0.56489,	-0.11288
	-0.58157,	-0.096253
	-0.59715,	-0.078787
	-0.61158,	-0.0606
	-0.62488,	-0.041806
	-0.63702,	-0.022509
	-0.64804,	-0.0028103
	-0.65794,	 0.017199
	-0.66675,	 0.037433
	-0.67449,	 0.057816
	-0.68121,	 0.078277
	-0.68694,	 0.098754
	-0.69172,	 0.11919
	-0.69558,	 0.13953
	-0.69858,	 0.15975
	-0.70075,	 0.17979
	-0.70213,	 0.19963
	-0.70277,	 0.21924
	-0.70196,	 0.25765
	-0.69862,	 0.29489
	-0.69304,	 0.33085
	-0.68547,	 0.36545
	-0.67615,	 0.39867
	-0.66528,	 0.43048
	-0.65306,	 0.46089
	-0.63964,	 0.48991
	-0.62519,	 0.51757
	-0.60983,	 0.5439
	-0.59368,	 0.56893
	-0.57684,	 0.5927
	-0.55942,	 0.61526
	-0.54149,	 0.63663
	-0.52312,	 0.65687
	-0.50439,	 0.67602
	-0.48535,	 0.69411
	-0.46605,	 0.71118
	-0.44655,	 0.72728
	-0.42688,	 0.74244
	-0.40708,	 0.75669
	-0.38718,	 0.77007
	-0.36722,	 0.78261
	-0.34723,	 0.79435
	-0.32722,	 0.80532
	-0.30723,	 0.81553
	-0.28726,	 0.82503
	-0.26735,	 0.83384
	-0.22773,	 0.84949
	-0.18849,	 0.86267
	-0.14973,	 0.87356
	-0.1115,	 0.88233
	-0.073895,	 0.88911
	-0.036941,	 0.89407
	-0.00068771,	 0.89731
	 0.034833,	 0.89897
END
BEGIN
	 0.00105585482 ,	 -0.00386420458 
	 0.00102090697 ,	 -0.00409704009 
	 0.000977816839 ,	 -0.00434412437 
	 0.000925575733 ,	 -0.00460633032 
	 0.000863059807 ,	 -0.00488457977 
	 0.000789016719 ,	 -0.00517984489 
	 0.000702050658 ,	 -0.00549314951 
	 0.000600605541 ,	 -0.00582556998 
	 0.000482946141 ,	 -0.00617823563 
	 0.000347136877 ,	 -0.00655232858 
	 0.000191017965 ,	 -0.00694908283 
	 1.21785767e-005 ,	 -0.00736978229 
	 -0.000192073381 ,	 -0.00781575768 
	 -0.000424745321 ,	 -0.00828838171 
	 -0.000689198372 ,	 -0.00878906247 
	-0.00098919,	-0.0093192
	-0.0013289,	-0.0098803
	-0.002147,	-0.011101
	-0.0031883,	-0.012463
	-0.0045091,	-0.013974
	-0.0061803,	-0.015644
	-0.0071745,	-0.016538
	-0.0082915,	-0.017471
	-0.0095462,	-0.018443
	-0.010955,	-0.01945
	-0.012538,	-0.020489
	-0.014315,	-0.021556
	-0.01631,	-0.022643
	-0.01855,	-0.023742
	-0.021065,	-0.024841
	-0.023889,	-0.025924
	-0.027058,	-0.02697
	-0.030615,	-0.027955
	-0.032554,	-0.028414
	-0.034606,	-0.028844
	-0.036781,	-0.02924
	-0.039083,	-0.029595
	-0.041521,	-0.029904
	-0.044101,	-0.030157
	-0.046832,	-0.030345
	-0.049722,	-0.03046
	-0.052778,	-0.03049
	-0.05601,	-0.030423
	-0.059426,	-0.030245
	-0.063035,	-0.029939
	-0.066845,	-0.02949
	-0.070866,	-0.028878
	-0.075105,	-0.028081
	-0.079572,	-0.027075
	-0.084272,	-0.025834
	-0.089214,	-0.024328
	-0.094401,	-0.022525
	-0.099839,	-0.020388
	-0.10265,	-0.019182
	-0.10552,	-0.017878
	-0.10846,	-0.016468
	-0.11146,	-0.014949
	-0.11453,	-0.013313
	-0.11765,	-0.011554
	-0.12084,	-0.0096652
	-0.12408,	-0.0076397
	-0.12849,	-0.0047134
	-0.133,	-0.0015125
	-0.13759,	 0.0019823
	-0.14227,	 0.0057911
	-0.14464,	 0.0078199
	-0.14702,	 0.0099352
	-0.14942,	 0.01214
	-0.15183,	 0.014436
	-0.15425,	 0.016828
	-0.15668,	 0.019318
	-0.15912,	 0.021908
	-0.16156,	 0.024602
	-0.16401,	 0.027404
	-0.16645,	 0.030315
	-0.1689,	 0.033339
	-0.17134,	 0.036479
	-0.17376,	 0.039739
	-0.17618,	 0.043121
	-0.17858,	 0.046628
	-0.18096,	 0.050264
	-0.18332,	 0.054031
	-0.18565,	 0.057933
	-0.18794,	 0.061972
	-0.1902,	 0.066152
	-0.19242,	 0.070475
	-0.19458,	 0.074943
	-0.1967,	 0.07956
	-0.19875,	 0.084328
	-0.20073,	 0.089248
	-0.20265,	 0.094324
	-0.20448,	 0.099557
	-0.20622,	 0.10494
	-0.20787,	 0.11049
	-0.20942,	 0.11621
	-0.21086,	 0.12208
	-0.21218,	 0.12812
	-0.21442,	 0.14068
	-0.21607,	 0.15389
	-0.21707,	 0.16773
	-0.21732,	 0.18219
	-0.21714,	 0.18965
	-0.21674,	 0.19724
	-0.21612,	 0.20497
	-0.21525,	 0.21284
	-0.21414,	 0.22082
	-0.21276,	 0.22893
	-0.21112,	 0.23715
	-0.20919,	 0.24546
	-0.20698,	 0.25387
	-0.20446,	 0.26236
	-0.20164,	 0.27092
	-0.19849,	 0.27953
	-0.19501,	 0.28819
	-0.1912,	 0.29688
	-0.18705,	 0.30559
	-0.18255,	 0.3143
	-0.17769,	 0.32299
	-0.17247,	 0.33165
	-0.16688,	 0.34027
	-0.16093,	 0.34883
	-0.15461,	 0.3573
	-0.14791,	 0.36567
	-0.14084,	 0.37392
	-0.1334,	 0.38203
	-0.12559,	 0.38999
	-0.11742,	 0.39777
	-0.10888,	 0.40535
	-0.099999,	 0.41272
	-0.090761,	 0.41986
	-0.081184,	 0.42675
	-0.071276,	 0.43337
	-0.061049,	 0.43971
	-0.050514,	 0.44574
	-0.039683,	 0.45145
	-0.028572,	 0.45683
	-0.017194,	 0.46186
	-0.0055655,	 0.46653
	 0.0062974,	 0.47082
	 0.018377,	 0.47473
	 0.030656,	 0.47824
	 0.043116,	 0.48135
	 0.055738,	 0.48404
	 0.068503,	 0.48631
	 0.081392,	 0.48816
	 0.094384,	 0.48958
	 0.10746,	 0.49057
	 0.1206,	 0.49112
	 0.13378,	 0.49124
	 0.16022,	 0.49017
	 0.18661,	 0.48737
	 0.21281,	 0.48289
	 0.23869,	 0.47677
	 0.26412,	 0.46906
	 0.289,	 0.45984
	 0.31322,	 0.44917
	 0.3367,	 0.43716
	 0.35935,	 0.42387
	 0.38113,	 0.4094
	 0.40196,	 0.39385
	 0.42182,	 0.37729
	 0.44067,	 0.35982
	 0.45848,	 0.34152
	 0.47524,	 0.32247
	 0.49093,	 0.30274
	 0.50556,	 0.28242
	 0.51912,	 0.26157
	 0.53161,	 0.24025
	 0.54305,	 0.21852
	 0.55344,	 0.19645
	 0.56279,	 0.17408
	 0.57111,	 0.15146
	 0.57842,	 0.12864
	 0.58473,	 0.10566
	 0.59006,	 0.082558
	 0.59441,	 0.059372
	 0.59781,	 0.036137
	 0.60027,	 0.012887
	 0.60179,	-0.010346
	 0.60241,	-0.033533
	 0.60212,	-0.056643
	 0.60094,	-0.079649
	 0.59888,	-0.10252
	 0.59596,	-0.12523
	 0.59219,	-0.14776
	 0.58758,	-0.17008
	 0.58215,	-0.19217
	 0.5759,	-0.21399
	 0.56885,	-0.23552
	 0.56102,	-0.25674
	 0.55241,	-0.27763
	 0.54305,	-0.29815
	 0.53294,	-0.31828
	 0.52211,	-0.33801
	 0.51056,	-0.3573
	 0.49832,	-0.37613
	 0.4854,	-0.39448
	 0.47183,	-0.41232
	 0.45762,	-0.42964
	 0.44279,	-0.44641
	 0.42737,	-0.46261
	 0.41138,	-0.47822
	 0.39483,	-0.49321
	 0.37776,	-0.50758
	 0.36019,	-0.5213
	 0.34214,	-0.53436
	 0.32365,	-0.54673
	 0.30473,	-0.55841
	 0.28542,	-0.56939
	 0.26574,	-0.57964
	 0.24572,	-0.58915
	 0.22539,	-0.59793
	 0.20479,	-0.60596
	 0.18393,	-0.61322
	 0.16285,	-0.61972
	 0.14157,	-0.62545
	 0.12014,	-0.63041
	 0.098573,	-0.63459
	 0.076899,	-0.638
	 0.055151,	-0.64062
	 0.033355,	-0.64247
	 0.011542,	-0.64355
	-0.010261,	-0.64386
	-0.032027,	-0.64339
	-0.053728,	-0.64217
	-0.075338,	-0.6402
	-0.09683,	-0.63747
	-0.11818,	-0.63401
	-0.13936,	-0.62982
	-0.16035,	-0.6249
	-0.18112,	-0.61928
	-0.20166,	-0.61295
	-0.22193,	-0.60594
	-0.24192,	-0.59825
	-0.26161,	-0.58989
	-0.28098,	-0.58089
	-0.29999,	-0.57125
	-0.33692,	-0.55012
	-0.37225,	-0.52662
	-0.40583,	-0.50086
	-0.43755,	-0.47298
	-0.46004,	-0.45076
	-0.48135,	-0.42748
	-0.50146,	-0.40319
	-0.5203,	-0.37797
	-0.53785,	-0.35186
	-0.55405,	-0.32494
	-0.56888,	-0.29726
	-0.5823,	-0.2689
	-0.59428,	-0.23992
	-0.60479,	-0.2104
	-0.6138,	-0.1804
	-0.62129,	-0.15
	-0.62725,	-0.11927
	-0.63165,	-0.088296
	-0.63447,	-0.05714
	-0.63572,	-0.025888
	-0.63538,	 0.0053815
	-0.63345,	 0.036587
	-0.62993,	 0.067648
	-0.62484,	 0.098484
	-0.61817,	 0.12901
	-0.60995,	 0.15915
	-0.60019,	 0.18882
	-0.58892,	 0.21794
	-0.57617,	 0.24643
	-0.56196,	 0.27422
	-0.54634,	 0.30122
	-0.52934,	 0.32737
	-0.511,	 0.35259
	-0.49139,	 0.37682
	-0.47053,	 0.39998
	-0.4485,	 0.42201
	-0.42535,	 0.44285
	-0.40114,	 0.46244
	-0.37592,	 0.48073
	-0.34977,	 0.49766
	-0.32276,	 0.51317
	-0.29494,	 0.52723
	-0.2664,	 0.53979
	-0.2372,	 0.5508
	-0.20743,	 0.56022
	-0.17715,	 0.56801
	-0.14646,	 0.57413
	-0.11543,	 0.57855
	-0.084157,	 0.58123
	-0.052722,	 0.58215
	-0.021226,	 0.58127
	 0.010233,	 0.57856
	 0.041549,	 0.57401
	 0.072609,	 0.5676
	 0.10329,	 0.55931
	 0.13349,	 0.54913
	 0.16305,	 0.53706
	 0.19185,	 0.52312
	 0.21974,	 0.50733
	 0.24657,	 0.48972
	 0.27218,	 0.47033
	 0.29643,	 0.44924
	 0.31914,	 0.42653
	 0.34017,	 0.4023
	 0.35935,	 0.37667
	 0.37655,	 0.34981
	 0.39164,	 0.32186
	 0.40449,	 0.29304
	 0.41006,	 0.27836
	 0.41503,	 0.26353
	 0.4194,	 0.2486
