CITIFILE A.01.01
#Momentum: B.12.00.024 (*) built: Jan 14 2016 
#Momentum Date and Time: Thu Sep 26 15:21:01 2019

NAME Momentum.SP

#  mode: RF    project: proj    reference: S_50

#eesof Port[1] P1
#eesof Port[2] P2

CONSTANT NBR_OF_PORTS 2

CONSTANT NORMALIZATION 1

VAR freq MAG 13

DATA S[1,1] RI
DATA S[1,2] RI
DATA S[2,1] RI
DATA S[2,2] RI
DATA PORTZ[1] RI
DATA PORTZ[2] RI

VAR_LIST_BEGIN
	 1100000000
	 1216666667
	 1275000000
	 1313888889
	 1333333333
	 1372222222
	 1450000000
	 1508333334
	 1566666667
	 1595833334
	 1625000001
	 1683333334
	 1800000000
VAR_LIST_END

BEGIN
	-0.857667829,	-0.372016506
	-0.81884217,	 0.349724816
	-0.367792613,	 0.70534161
	 0.133708639,	 0.477672384
	 0.087950355,	 0.22206409
	 0.000520228204,	 0.21383194
	-0.0490687366,	 0.0649074401
	-0.0865276865,	-0.00924047922
	-0.142014861,	-0.112876059
	-0.422445771,	-0.1957653
	-0.674496534,	 0.0578158929
	-0.576847963,	 0.592706238
	 0.0348326277,	 0.89897211
END
BEGIN
	 0.00105585482 ,	 -0.00386420458 
	-0.0185503314,	-0.0237423472
	-0.124084146,	-0.00763969277
	-0.182553035,	 0.314300155
	 0.133789603,	 0.49124163
	 0.602121138,	-0.0566428982
	-0.43755568,	-0.472988426
	-0.448508695,	 0.422012817
	 0.404499927,	 0.293041464
	 0.318136837,	-0.10823217
	 0.0880046776,	-0.161393577
	-0.0222531706,	-0.0534532137
	-0.0110529202,	-0.0025716174
END
BEGIN
	 0.00105585482 ,	 -0.00386420458 
	-0.0185503314,	-0.0237423472
	-0.124084146,	-0.00763969277
	-0.182553035,	 0.314300155
	 0.133789603,	 0.49124163
	 0.602121138,	-0.0566428982
	-0.43755568,	-0.472988426
	-0.448508695,	 0.422012817
	 0.404499927,	 0.293041464
	 0.318136837,	-0.10823217
	 0.0880046776,	-0.161393577
	-0.0222531706,	-0.0534532137
	-0.0110529202,	-0.0025716174
END
BEGIN
	-0.857667734,	-0.372014618
	-0.818835008,	 0.349735937
	-0.367774847,	 0.705351514
	 0.133714807,	 0.477711252
	 0.0880067162,	 0.222152505
	 0.000754704209,	 0.213787492
	-0.0493012674,	 0.0646222665
	-0.0867723204,	-0.00908701971
	-0.141985571,	-0.112775964
	-0.422439566,	-0.19571925
	-0.674494859,	 0.0578646658
	-0.576828916,	 0.592735737
	 0.0348411009,	 0.898974288
END
BEGIN
	 50 ,	 0 
	 50 ,	 0 
	 50 ,	 0 
	 50 ,	 0 
	 50 ,	 0 
	 50 ,	 0 
	 50 ,	 0 
	 50 ,	 0 
	 50 ,	 0 
	 50 ,	 0 
	 50 ,	 0 
	 50 ,	 0 
	 50 ,	 0 
END
BEGIN
	 50 ,	 0 
	 50 ,	 0 
	 50 ,	 0 
	 50 ,	 0 
	 50 ,	 0 
	 50 ,	 0 
	 50 ,	 0 
	 50 ,	 0 
	 50 ,	 0 
	 50 ,	 0 
	 50 ,	 0 
	 50 ,	 0 
	 50 ,	 0 
END
