CITIFILE A.01.01
#Momentum: B.12.00.024 (*) built: Jan 14 2016 
#Momentum Date and Time: Tue Sep 24 17:10:33 2019

NAME Momentum.SP

#  mode: RF    reference: S_50

#eesof Port[1] P1
#eesof Port[2] P2

CONSTANT NBR_OF_PORTS 2

CONSTANT NORMALIZATION 1

VAR freq MAG 509

DATA S[1,1] RI
DATA S[1,2] RI
DATA S[2,1] RI
DATA S[2,2] RI
DATA PORTZ[1] RI
DATA PORTZ[2] RI

VAR_LIST_BEGIN
	 1100000000
	 1103645833
	 1107291667
	 1110937500
	 1114583333
	 1118229167
	 1121875000
	 1125520833
	 1129166667
	 1132812500
	 1136458333
	 1140104167
	 1143750000
	 1147395833
	 1151041667
	 1154687500
	 1158333334
	 1161979167
	 1165625000
	 1169270834
	 1172916667
	 1174739584
	 1176562500
	 1178385417
	 1180208334
	 1182031250
	 1183854167
	 1185677084
	 1187500000
	 1189322917
	 1191145834
	 1192968750
	 1194791667
	 1196614584
	 1198437500
	 1200260417
	 1202083334
	 1203906250
	 1205729167
	 1207552084
	 1209375000
	 1211197917
	 1213020834
	 1214843750
	 1216666667
	 1218489584
	 1220312500
	 1222135417
	 1223958334
	 1225781250
	 1227604167
	 1229427084
	 1231250000
	 1233072917
	 1234895834
	 1236718750
	 1238541667
	 1240364584
	 1242187500
	 1244010417
	 1245833334
	 1247656250
	 1249479167
	 1251302083
	 1253125000
	 1254947917
	 1256770833
	 1258593750
	 1260416667
	 1262239583
	 1264062500
	 1265885417
	 1267708333
	 1269531250
	 1271354167
	 1273177083
	 1275000000
	 1275911458
	 1276822917
	 1277734375
	 1278645833
	 1279557292
	 1280468750
	 1281380208
	 1282291667
	 1283203125
	 1284114583
	 1285026042
	 1285937500
	 1286848958
	 1287760417
	 1288671875
	 1289583333
	 1290494792
	 1291406250
	 1292317708
	 1293229167
	 1294140625
	 1295052083
	 1295963542
	 1296875000
	 1297786458
	 1298697917
	 1299609375
	 1300520833
	 1301432292
	 1302343750
	 1303255208
	 1304166667
	 1305078125
	 1305989583
	 1306901041
	 1307812500
	 1308723958
	 1309635416
	 1310546875
	 1311458333
	 1312369791
	 1313281250
	 1314192708
	 1315104166
	 1316015625
	 1316927083
	 1317838541
	 1318750000
	 1319661458
	 1320572916
	 1321484375
	 1322395833
	 1323307291
	 1324218750
	 1325130208
	 1326041666
	 1326953125
	 1327864583
	 1328776041
	 1329687500
	 1330143229
	 1330598958
	 1331054687
	 1331510416
	 1331966146
	 1332421875
	 1332877604
	 1333333333
	 1334244791
	 1335156250
	 1336067708
	 1336979166
	 1337890625
	 1338802083
	 1339713541
	 1340625000
	 1341536458
	 1342447916
	 1343359375
	 1344270833
	 1345182291
	 1346093750
	 1347005208
	 1347916667
	 1348828125
	 1349739583
	 1350651042
	 1351562500
	 1352473958
	 1353385417
	 1354296875
	 1355208333
	 1356119792
	 1357031250
	 1357942708
	 1358854167
	 1359765625
	 1360677083
	 1361588542
	 1362500000
	 1363411458
	 1364322917
	 1365234375
	 1366145833
	 1367057292
	 1367968750
	 1368880208
	 1369791667
	 1370247396
	 1370703125
	 1371158854
	 1371614583
	 1372070313
	 1372526042
	 1372981771
	 1373437500
	 1373893229
	 1374348958
	 1374804688
	 1375260417
	 1375716146
	 1376171875
	 1376627604
	 1377083334
	 1377539063
	 1377994792
	 1378450521
	 1378906250
	 1379361979
	 1379817709
	 1380273438
	 1380729167
	 1381184896
	 1381640625
	 1382096354
	 1382552084
	 1383007813
	 1383463542
	 1383919271
	 1384375000
	 1384830729
	 1385286459
	 1385742188
	 1386197917
	 1386653646
	 1387109375
	 1387565104
	 1388020834
	 1388476563
	 1388932292
	 1389388021
	 1389843750
	 1390299479
	 1390755209
	 1391210938
	 1391666667
	 1392122396
	 1392578125
	 1393033854
	 1393489584
	 1393945313
	 1394401042
	 1394856771
	 1395312500
	 1396223959
	 1397135417
	 1398046875
	 1398958334
	 1399869792
	 1400781250
	 1401692709
	 1402604167
	 1403515625
	 1404427084
	 1405338542
	 1406250000
	 1407161459
	 1408072917
	 1408984375
	 1409895834
	 1410807292
	 1411718750
	 1412630209
	 1413541667
	 1414453125
	 1415364584
	 1416276042
	 1417187500
	 1418098959
	 1419010417
	 1419921875
	 1420833334
	 1421744792
	 1422656250
	 1423567708
	 1424479167
	 1425390625
	 1426302083
	 1427213542
	 1428125000
	 1429036458
	 1429947917
	 1430859375
	 1431770833
	 1432682292
	 1433593750
	 1434505208
	 1435416667
	 1436328125
	 1437239583
	 1438151042
	 1439062500
	 1439973958
	 1440885417
	 1441796875
	 1442708333
	 1443619792
	 1444531250
	 1445442708
	 1446354167
	 1447265625
	 1448177083
	 1449088542
	 1450000000
	 1450911458
	 1451822917
	 1452734375
	 1453645833
	 1454557292
	 1455468750
	 1456380208
	 1457291667
	 1458203125
	 1459114583
	 1460026042
	 1460937500
	 1461848958
	 1462760417
	 1463671875
	 1464583334
	 1465494792
	 1466406250
	 1467317709
	 1468229167
	 1469140625
	 1470052084
	 1470963542
	 1471875000
	 1472786459
	 1473697917
	 1474609375
	 1475520834
	 1476432292
	 1477343750
	 1478255209
	 1479166667
	 1480078125
	 1480989584
	 1481901042
	 1482812500
	 1483723959
	 1484635417
	 1485546875
	 1486458334
	 1487369792
	 1488281250
	 1489192709
	 1490104167
	 1491015625
	 1491927084
	 1492838542
	 1493750001
	 1494661459
	 1495572917
	 1496484376
	 1497395834
	 1498307292
	 1499218751
	 1500130209
	 1501041667
	 1501953126
	 1502864584
	 1503776042
	 1504687501
	 1505598959
	 1506510417
	 1507421876
	 1508333334
	 1509244792
	 1510156251
	 1511067709
	 1511979167
	 1512890626
	 1513802084
	 1514713542
	 1515625001
	 1516536459
	 1517447917
	 1518359376
	 1519270834
	 1520182292
	 1521093751
	 1522005209
	 1522916667
	 1523828126
	 1524739584
	 1525651042
	 1526562501
	 1527473959
	 1528385417
	 1529296876
	 1530208334
	 1531119792
	 1532031251
	 1532942709
	 1533854167
	 1534765626
	 1535677084
	 1536588542
	 1537500001
	 1538411459
	 1539322917
	 1540234375
	 1541145834
	 1542057292
	 1542968750
	 1543880209
	 1544791667
	 1545703125
	 1546614584
	 1547526042
	 1548437500
	 1549348959
	 1550260417
	 1551171875
	 1552083334
	 1552994792
	 1553906250
	 1554817709
	 1555729167
	 1556640625
	 1557552084
	 1558463542
	 1559375000
	 1560286459
	 1561197917
	 1562109375
	 1563020834
	 1563932292
	 1564843750
	 1565755209
	 1566666667
	 1568489584
	 1570312500
	 1572135417
	 1573958334
	 1575781250
	 1577604167
	 1579427084
	 1581250001
	 1583072917
	 1584895834
	 1586718751
	 1588541667
	 1590364584
	 1592187501
	 1594010417
	 1595833334
	 1597656251
	 1599479167
	 1601302084
	 1603125001
	 1604947917
	 1606770834
	 1608593751
	 1610416668
	 1612239584
	 1614062501
	 1615885418
	 1617708334
	 1619531251
	 1621354168
	 1623177084
	 1625000001
	 1626822918
	 1628645834
	 1630468751
	 1632291668
	 1634114584
	 1635937501
	 1637760418
	 1639583334
	 1643229168
	 1646875001
	 1650520834
	 1654166668
	 1657812501
	 1661458334
	 1665104167
	 1668750001
	 1672395834
	 1676041667
	 1679687501
	 1683333334
	 1686979167
	 1690625001
	 1694270834
	 1697916667
	 1701562501
	 1705208334
	 1708854167
	 1712500001
	 1716145834
	 1719791667
	 1723437500
	 1727083334
	 1730729167
	 1734375000
	 1738020834
	 1741666667
	 1745312500
	 1748958334
	 1752604167
	 1756250000
	 1759895834
	 1763541667
	 1767187500
	 1770833334
	 1778125000
	 1785416667
	 1792708333
	 1800000000
VAR_LIST_END

BEGIN
	-0.93259,	 0.0049087
	-0.93182,	 0.0246
	-0.93062,	 0.044372
	-0.92899,	 0.064216
	-0.92693,	 0.084123
	-0.92442,	 0.10408
	-0.92146,	 0.12408
	-0.91805,	 0.14411
	-0.91417,	 0.16417
	-0.90983,	 0.18423
	-0.90502,	 0.20429
	-0.89973,	 0.22435
	-0.89396,	 0.24437
	-0.88771,	 0.26436
	-0.88096,	 0.28431
	-0.87372,	 0.30419
	-0.86597,	 0.324
	-0.85772,	 0.34372
	-0.84897,	 0.36334
	-0.8397,	 0.38285
	-0.82992,	 0.40223
	-0.82483,	 0.41187
	-0.81962,	 0.42147
	-0.81427,	 0.43103
	-0.80879,	 0.44055
	-0.80319,	 0.45003
	-0.79745,	 0.45946
	-0.79157,	 0.46885
	-0.78557,	 0.47818
	-0.77943,	 0.48747
	-0.77316,	 0.49671
	-0.76676,	 0.50589
	-0.76022,	 0.51501
	-0.75355,	 0.52407
	-0.74675,	 0.53308
	-0.73981,	 0.54202
	-0.73274,	 0.5509
	-0.72553,	 0.55971
	-0.71819,	 0.56845
	-0.71071,	 0.57712
	-0.70309,	 0.58571
	-0.69534,	 0.59423
	-0.68745,	 0.60267
	-0.67943,	 0.61103
	-0.67127,	 0.61931
	-0.66297,	 0.6275
	-0.65454,	 0.63561
	-0.64597,	 0.64362
	-0.63726,	 0.65154
	-0.62841,	 0.65937
	-0.61943,	 0.6671
	-0.61031,	 0.67473
	-0.60105,	 0.68225
	-0.59165,	 0.68967
	-0.58211,	 0.69697
	-0.57244,	 0.70417
	-0.56263,	 0.71125
	-0.55267,	 0.71821
	-0.54258,	 0.72505
	-0.53235,	 0.73177
	-0.52198,	 0.73836
	-0.51148,	 0.74482
	-0.50083,	 0.75114
	-0.49004,	 0.75732
	-0.47912,	 0.76337
	-0.46806,	 0.76926
	-0.45685,	 0.77501
	-0.44551,	 0.7806
	-0.43403,	 0.78604
	-0.42241,	 0.79131
	-0.41065,	 0.79642
	-0.39875,	 0.80136
	-0.38672,	 0.80612
	-0.37455,	 0.8107
	-0.36223,	 0.8151
	-0.34979,	 0.8193
	-0.3372,	 0.82331
	-0.33086,	 0.82524
	-0.32448,	 0.82712
	-0.31807,	 0.82894
	-0.31163,	 0.83072
	-0.30515,	 0.83244
	-0.29863,	 0.83411
	-0.29209,	 0.83572
	-0.28551,	 0.83727
	-0.2789,	 0.83877
	-0.27225,	 0.84021
	-0.26558,	 0.8416
	-0.25886,	 0.84292
	-0.25212,	 0.84419
	-0.24535,	 0.84539
	-0.23854,	 0.84653
	-0.2317,	 0.84761
	-0.22483,	 0.84863
	-0.21792,	 0.84958
	-0.21099,	 0.85047
	-0.20402,	 0.85129
	-0.19702,	 0.85204
	-0.19,	 0.85272
	-0.18294,	 0.85333
	-0.17585,	 0.85388
	-0.16874,	 0.85435
	-0.16159,	 0.85474
	-0.15441,	 0.85507
	-0.14721,	 0.85531
	-0.13998,	 0.85549
	-0.13272,	 0.85558
	-0.12543,	 0.85559
	-0.11812,	 0.85553
	-0.11078,	 0.85538
	-0.10342,	 0.85515
	-0.096033,	 0.85483
	-0.08862,	 0.85443
	-0.081182,	 0.85395
	-0.073722,	 0.85337
	-0.06624,	 0.8527
	-0.058736,	 0.85195
	-0.051211,	 0.85109
	-0.043667,	 0.85015
	-0.036104,	 0.84911
	-0.028523,	 0.84797
	-0.020924,	 0.84673
	-0.01331,	 0.84539
	-0.0056811,	 0.84395
	 0.0019617,	 0.84241
	 0.0096169,	 0.84076
	 0.017283,	 0.839
	 0.02496,	 0.83713
	 0.032645,	 0.83515
	 0.040337,	 0.83306
	 0.048034,	 0.83086
	 0.055735,	 0.82853
	 0.063438,	 0.82609
	 0.071142,	 0.82353
	 0.078845,	 0.82085
	 0.086543,	 0.81804
	 0.094237,	 0.81511
	 0.098081,	 0.8136
	 0.10192,	 0.81205
	 0.10576,	 0.81047
	 0.10959,	 0.80886
	 0.11343,	 0.80722
	 0.11726,	 0.80554
	 0.12108,	 0.80383
	 0.12491,	 0.80209
	 0.13254,	 0.7985
	 0.14015,	 0.79477
	 0.14774,	 0.7909
	 0.1553,	 0.7869
	 0.16284,	 0.78275
	 0.17034,	 0.77845
	 0.17781,	 0.77401
	 0.18524,	 0.76942
	 0.19262,	 0.76468
	 0.19996,	 0.75979
	 0.20725,	 0.75475
	 0.21449,	 0.74955
	 0.22167,	 0.74419
	 0.22879,	 0.73868
	 0.23583,	 0.73301
	 0.24281,	 0.72718
	 0.24971,	 0.72119
	 0.25653,	 0.71503
	 0.26326,	 0.70871
	 0.2699,	 0.70223
	 0.27644,	 0.69558
	 0.28288,	 0.68877
	 0.28921,	 0.68179
	 0.29542,	 0.67465
	 0.30151,	 0.66735
	 0.30747,	 0.65988
	 0.3133,	 0.65224
	 0.31898,	 0.64444
	 0.32452,	 0.63648
	 0.3299,	 0.62836
	 0.33512,	 0.62009
	 0.34016,	 0.61165
	 0.34503,	 0.60306
	 0.34972,	 0.59433
	 0.35421,	 0.58544
	 0.3585,	 0.57641
	 0.36258,	 0.56724
	 0.36645,	 0.55793
	 0.37009,	 0.54849
	 0.3735,	 0.53893
	 0.37512,	 0.5341
	 0.37667,	 0.52924
	 0.37816,	 0.52436
	 0.3796,	 0.51945
	 0.38096,	 0.51451
	 0.38226,	 0.50954
	 0.3835,	 0.50455
	 0.38467,	 0.49954
	 0.38578,	 0.49451
	 0.38681,	 0.48945
	 0.38778,	 0.48437
	 0.38867,	 0.47927
	 0.3895,	 0.47415
	 0.39025,	 0.46902
	 0.39093,	 0.46387
	 0.39154,	 0.4587
	 0.39208,	 0.45353
	 0.39254,	 0.44833
	 0.39292,	 0.44313
	 0.39323,	 0.43792
	 0.39346,	 0.4327
	 0.39361,	 0.42747
	 0.39369,	 0.42224
	 0.39368,	 0.417
	 0.3936,	 0.41176
	 0.39344,	 0.40652
	 0.3932,	 0.40128
	 0.39288,	 0.39605
	 0.39247,	 0.39081
	 0.39199,	 0.38559
	 0.39142,	 0.38037
	 0.39077,	 0.37516
	 0.39004,	 0.36996
	 0.38923,	 0.36477
	 0.38833,	 0.35959
	 0.38735,	 0.35444
	 0.38629,	 0.3493
	 0.38514,	 0.34418
	 0.38392,	 0.33908
	 0.38261,	 0.334
	 0.38121,	 0.32896
	 0.37974,	 0.32393
	 0.37818,	 0.31894
	 0.37655,	 0.31398
	 0.37483,	 0.30905
	 0.37303,	 0.30415
	 0.37114,	 0.2993
	 0.36918,	 0.29448
	 0.36714,	 0.2897
	 0.36502,	 0.28496
	 0.36283,	 0.28027
	 0.36055,	 0.27562
	 0.3582,	 0.27103
	 0.35578,	 0.26648
	 0.35328,	 0.26198
	 0.35071,	 0.25754
	 0.34534,	 0.24882
	 0.3397,	 0.24034
	 0.33379,	 0.23211
	 0.32762,	 0.22414
	 0.32121,	 0.21645
	 0.31456,	 0.20904
	 0.30769,	 0.20194
	 0.30062,	 0.19514
	 0.29335,	 0.18866
	 0.28592,	 0.18251
	 0.27832,	 0.17669
	 0.27059,	 0.17121
	 0.26273,	 0.16608
	 0.25476,	 0.1613
	 0.24671,	 0.15688
	 0.23859,	 0.15281
	 0.23042,	 0.14911
	 0.22221,	 0.14576
	 0.21399,	 0.14277
	 0.20577,	 0.14013
	 0.19757,	 0.13785
	 0.18941,	 0.13591
	 0.18131,	 0.13432
	 0.17328,	 0.13306
	 0.16533,	 0.13213
	 0.15749,	 0.13152
	 0.14977,	 0.13122
	 0.14218,	 0.13122
	 0.13473,	 0.13151
	 0.12744,	 0.13208
	 0.12033,	 0.13292
	 0.11339,	 0.13401
	 0.10664,	 0.13534
	 0.10009,	 0.1369
	 0.093758,	 0.13867
	 0.087633,	 0.14064
	 0.081728,	 0.1428
	 0.076051,	 0.14513
	 0.070604,	 0.14762
	 0.065392,	 0.15025
	 0.060418,	 0.153
	 0.055683,	 0.15587
	 0.051189,	 0.15885
	 0.046936,	 0.1619
	 0.042924,	 0.16503
	 0.039152,	 0.16822
	 0.035617,	 0.17145
	 0.032318,	 0.17471
	 0.029252,	 0.17799
	 0.026414,	 0.18128
	 0.023801,	 0.18457
	 0.021408,	 0.18783
	 0.019229,	 0.19107
	 0.01726,	 0.19428
	 0.015493,	 0.19743
	 0.013924,	 0.20053
	 0.012544,	 0.20356
	 0.011347,	 0.20651
	 0.010325,	 0.20938
	 0.0094704,	 0.21216
	 0.0087758,	 0.21484
	 0.0082327,	 0.21741
	 0.0078327,	 0.21987
	 0.0075674,	 0.22221
	 0.0074279,	 0.22442
	 0.0074054,	 0.22651
	 0.007491,	 0.22846
	 0.0076755,	 0.23027
	 0.0079498,	 0.23194
	 0.0083045,	 0.23346
	 0.0087303,	 0.23483
	 0.0092178,	 0.23605
	 0.0097574,	 0.23711
	 0.01034,	 0.23802
	 0.010955,	 0.23877
	 0.011594,	 0.23936
	 0.012247,	 0.23979
	 0.012905,	 0.24006
	 0.013557,	 0.24018
	 0.014194,	 0.24013
	 0.014807,	 0.23992
	 0.015386,	 0.23956
	 0.015921,	 0.23904
	 0.016404,	 0.23837
	 0.016823,	 0.23754
	 0.017172,	 0.23657
	 0.017439,	 0.23545
	 0.017615,	 0.2342
	 0.017693,	 0.2328
	 0.017661,	 0.23127
	 0.017513,	 0.22962
	 0.017238,	 0.22784
	 0.016828,	 0.22595
	 0.016275,	 0.22394
	 0.015571,	 0.22184
	 0.014707,	 0.21964
	 0.013675,	 0.21735
	 0.012469,	 0.21498
	 0.011081,	 0.21253
	 0.0095041,	 0.21003
	 0.0077313,	 0.20747
	 0.0057568,	 0.20487
	 0.0035747,	 0.20224
	 0.0011797,	 0.19959
	-0.0014331,	 0.19693
	-0.004268,	 0.19426
	-0.0073288,	 0.19162
	-0.010619,	 0.18899
	-0.014141,	 0.18641
	-0.017896,	 0.18388
	-0.021886,	 0.18142
	-0.026112,	 0.17904
	-0.030573,	 0.17675
	-0.035268,	 0.17456
	-0.040195,	 0.17251
	-0.045352,	 0.17058
	-0.050735,	 0.16881
	-0.056338,	 0.16721
	-0.062158,	 0.16579
	-0.068186,	 0.16456
	-0.074417,	 0.16354
	-0.080841,	 0.16275
	-0.08745,	 0.16219
	-0.094233,	 0.16188
	-0.10117,	 0.16183
	-0.10827,	 0.16206
	-0.1155,	 0.16257
	-0.12286,	 0.16338
	-0.13033,	 0.16449
	-0.1379,	 0.16592
	-0.14554,	 0.16767
	-0.15324,	 0.16976
	-0.16099,	 0.17218
	-0.16877,	 0.17493
	-0.17655,	 0.17804
	-0.18433,	 0.18149
	-0.19208,	 0.18529
	-0.19978,	 0.18944
	-0.20742,	 0.19394
	-0.21498,	 0.19879
	-0.22243,	 0.20398
	-0.22976,	 0.2095
	-0.23696,	 0.21536
	-0.244,	 0.22154
	-0.25087,	 0.22804
	-0.25755,	 0.23485
	-0.26403,	 0.24196
	-0.27029,	 0.24936
	-0.27632,	 0.25703
	-0.28211,	 0.26496
	-0.28764,	 0.27315
	-0.29289,	 0.28157
	-0.29788,	 0.29021
	-0.30257,	 0.29906
	-0.30697,	 0.3081
	-0.31106,	 0.31731
	-0.31485,	 0.32668
	-0.31833,	 0.3362
	-0.32149,	 0.34585
	-0.32432,	 0.35561
	-0.32684,	 0.36546
	-0.32904,	 0.3754
	-0.33091,	 0.3854
	-0.33246,	 0.39545
	-0.33369,	 0.40554
	-0.3346,	 0.41565
	-0.3352,	 0.42577
	-0.33549,	 0.43588
	-0.33548,	 0.44598
	-0.33516,	 0.45604
	-0.33455,	 0.46606
	-0.33365,	 0.47603
	-0.33247,	 0.48593
	-0.33101,	 0.49576
	-0.32929,	 0.50551
	-0.32731,	 0.51517
	-0.32507,	 0.52472
	-0.32259,	 0.53417
	-0.31988,	 0.5435
	-0.31693,	 0.55271
	-0.31377,	 0.56179
	-0.3104,	 0.57074
	-0.30682,	 0.57956
	-0.30305,	 0.58823
	-0.29909,	 0.59676
	-0.29496,	 0.60514
	-0.29066,	 0.61336
	-0.28619,	 0.62144
	-0.2768,	 0.63711
	-0.26686,	 0.65215
	-0.25643,	 0.66655
	-0.24555,	 0.6803
	-0.23429,	 0.69341
	-0.22269,	 0.70588
	-0.21079,	 0.71772
	-0.19865,	 0.72894
	-0.18629,	 0.73955
	-0.17376,	 0.74958
	-0.16109,	 0.75902
	-0.14831,	 0.76791
	-0.13544,	 0.77626
	-0.12252,	 0.78408
	-0.10956,	 0.7914
	-0.096593,	 0.79822
	-0.083622,	 0.80458
	-0.070672,	 0.81049
	-0.057756,	 0.81596
	-0.044888,	 0.82101
	-0.03208,	 0.82567
	-0.019342,	 0.82994
	-0.0066835,	 0.83384
	 0.005888,	 0.83739
	 0.018365,	 0.8406
	 0.030742,	 0.84349
	 0.043014,	 0.84607
	 0.055175,	 0.84835
	 0.067223,	 0.85035
	 0.079153,	 0.85208
	 0.090963,	 0.85355
	 0.10265,	 0.85477
	 0.11421,	 0.85576
	 0.12565,	 0.85651
	 0.13696,	 0.85705
	 0.14815,	 0.85738
	 0.15921,	 0.85751
	 0.17014,	 0.85745
	 0.18094,	 0.85721
	 0.19162,	 0.85679
	 0.2126,	 0.85545
	 0.23307,	 0.8535
	 0.25305,	 0.85099
	 0.27254,	 0.84795
	 0.29155,	 0.84443
	 0.31009,	 0.84047
	 0.32818,	 0.8361
	 0.34582,	 0.83135
	 0.36303,	 0.82625
	 0.37981,	 0.82084
	 0.39618,	 0.81512
	 0.41214,	 0.80913
	 0.42772,	 0.80289
	 0.44291,	 0.7964
	 0.45773,	 0.7897
	 0.47218,	 0.78279
	 0.48629,	 0.7757
	 0.50005,	 0.76842
	 0.51347,	 0.76099
	 0.52657,	 0.7534
	 0.53936,	 0.74567
	 0.55183,	 0.73781
	 0.564,	 0.72983
	 0.57588,	 0.72174
	 0.58747,	 0.71354
	 0.59878,	 0.70524
	 0.60982,	 0.69685
	 0.62059,	 0.68838
	 0.6311,	 0.67983
	 0.64136,	 0.67121
	 0.65137,	 0.66253
	 0.66113,	 0.65378
	 0.67066,	 0.64498
	 0.67996,	 0.63612
	 0.68903,	 0.62722
	 0.69788,	 0.61828
	 0.71493,	 0.60027
	 0.73115,	 0.58214
	 0.74657,	 0.5639
	 0.76122,	 0.54557
END
BEGIN
	-0.0022767,	-0.031959
	-0.0030499,	-0.03274
	-0.0038657,	-0.033527
	-0.0047256,	-0.034319
	-0.0056314,	-0.035116
	-0.0065851,	-0.035916
	-0.0075883,	-0.036719
	-0.008643,	-0.037523
	-0.0097512,	-0.038329
	-0.010915,	-0.039133
	-0.012137,	-0.039935
	-0.013418,	-0.040733
	-0.014761,	-0.041527
	-0.016169,	-0.042313
	-0.017644,	-0.043091
	-0.019189,	-0.043859
	-0.020806,	-0.044613
	-0.022497,	-0.045353
	-0.024266,	-0.046076
	-0.026115,	-0.046779
	-0.028048,	-0.047459
	-0.029047,	-0.04779
	-0.030067,	-0.048113
	-0.031111,	-0.04843
	-0.032177,	-0.048739
	-0.033266,	-0.04904
	-0.034379,	-0.049332
	-0.035516,	-0.049615
	-0.036678,	-0.049889
	-0.037865,	-0.050153
	-0.039077,	-0.050406
	-0.040316,	-0.050648
	-0.041581,	-0.050878
	-0.042872,	-0.051096
	-0.044192,	-0.051301
	-0.045539,	-0.051492
	-0.046914,	-0.051669
	-0.048319,	-0.051831
	-0.049753,	-0.051977
	-0.051217,	-0.052107
	-0.052712,	-0.052219
	-0.054238,	-0.052314
	-0.055795,	-0.052389
	-0.057385,	-0.052444
	-0.059008,	-0.052479
	-0.060664,	-0.052492
	-0.062355,	-0.052481
	-0.064079,	-0.052447
	-0.06584,	-0.052388
	-0.067636,	-0.052303
	-0.069469,	-0.052191
	-0.071339,	-0.052049
	-0.073246,	-0.051878
	-0.075193,	-0.051676
	-0.077178,	-0.051441
	-0.079203,	-0.051171
	-0.081269,	-0.050866
	-0.083376,	-0.050523
	-0.085525,	-0.050141
	-0.087716,	-0.049719
	-0.08995,	-0.049253
	-0.092228,	-0.048742
	-0.094551,	-0.048185
	-0.096919,	-0.047579
	-0.099332,	-0.046921
	-0.10179,	-0.04621
	-0.10429,	-0.045443
	-0.10685,	-0.044617
	-0.10945,	-0.04373
	-0.1121,	-0.042779
	-0.11481,	-0.041761
	-0.11756,	-0.040673
	-0.12036,	-0.039511
	-0.12321,	-0.038272
	-0.12611,	-0.036953
	-0.12907,	-0.035549
	-0.13208,	-0.034057
	-0.1336,	-0.033277
	-0.13513,	-0.032473
	-0.13668,	-0.031646
	-0.13824,	-0.030793
	-0.13982,	-0.029915
	-0.14141,	-0.029011
	-0.14301,	-0.028081
	-0.14462,	-0.027124
	-0.14625,	-0.026139
	-0.14789,	-0.025125
	-0.14954,	-0.024083
	-0.1512,	-0.023011
	-0.15288,	-0.021908
	-0.15457,	-0.020774
	-0.15627,	-0.019609
	-0.15799,	-0.018411
	-0.15972,	-0.017179
	-0.16145,	-0.015914
	-0.16321,	-0.014613
	-0.16497,	-0.013277
	-0.16674,	-0.011904
	-0.16853,	-0.010494
	-0.17033,	-0.0090457
	-0.17214,	-0.007558
	-0.17396,	-0.0060303
	-0.17579,	-0.0044615
	-0.17763,	-0.0028506
	-0.17948,	-0.0011969
	-0.18134,	 0.00050089
	-0.18321,	 0.0022436
	-0.18509,	 0.0040324
	-0.18698,	 0.0058683
	-0.18887,	 0.0077524
	-0.19078,	 0.0096858
	-0.19269,	 0.01167
	-0.1946,	 0.013705
	-0.19653,	 0.015793
	-0.19846,	 0.017935
	-0.20039,	 0.020133
	-0.20233,	 0.022387
	-0.20427,	 0.024698
	-0.20621,	 0.027069
	-0.20816,	 0.0295
	-0.21011,	 0.031993
	-0.21206,	 0.034548
	-0.214,	 0.037169
	-0.21595,	 0.039855
	-0.21789,	 0.042608
	-0.21983,	 0.04543
