CITIFILE A.01.01
#Momentum: B.12.00.024 (*) built: Jan 14 2016 
#Momentum Date and Time: Tue Sep 24 17:10:34 2019

NAME Momentum.SP

#  mode: RF    project: proj    reference: S_50

#eesof Port[1] P1
#eesof Port[2] P2

CONSTANT NBR_OF_PORTS 2

CONSTANT NORMALIZATION 1

VAR freq MAG 11

DATA S[1,1] RI
DATA S[1,2] RI
DATA S[2,1] RI
DATA S[2,2] RI
DATA PORTZ[1] RI
DATA PORTZ[2] RI

VAR_LIST_BEGIN
	 1100000000
	 1216666667
	 1275000000
	 1333333333
	 1391666667
	 1450000000
	 1508333334
	 1566666667
	 1625000001
	 1683333334
	 1800000000
VAR_LIST_END

BEGIN
	-0.932598585,	 0.00490874881
	-0.671274233,	 0.619316291
	-0.337207206,	 0.823316186
	 0.124911029,	 0.802091749
	 0.36918856,	 0.294481728
	 0.00947037922,	 0.212166033
	-0.094232543,	 0.161882239
	-0.286194279,	 0.62144121
	 0.102651639,	 0.854777368
	 0.412148634,	 0.809136537
	 0.761222102,	 0.545578952
END
BEGIN
	-0.00227667833,	-0.0319588466
	-0.0590079805,	-0.0524788018
	-0.132080061,	-0.0340574141
	-0.247526885,	 0.0970648274
	-0.0878290183,	 0.539884921
	 0.644000032,	 0.230134127
	 0.360986214,	-0.526651597
	-0.223509553,	-0.263802094
	-0.149989079,	-0.0231966616
	-0.0759693603,	 0.0205440859
	-0.021180339,	 0.0219931677
END
BEGIN
	-0.00227667833,	-0.0319588466
	-0.0590079805,	-0.0524788018
	-0.132080061,	-0.0340574141
	-0.247526885,	 0.0970648274
	-0.0878290183,	 0.539884921
	 0.644000032,	 0.230134127
	 0.360986214,	-0.526651597
	-0.223509553,	-0.263802094
	-0.149989079,	-0.0231966616
	-0.0759693603,	 0.0205440859
	-0.021180339,	 0.0219931677
END
BEGIN
	-0.932599043,	 0.00487442814
	-0.671305491,	 0.619288326
	-0.337250782,	 0.823309018
	 0.124874177,	 0.802122763
	 0.369226714,	 0.294535386
	 0.00953778079,	 0.21211198
	-0.094259278,	 0.161778929
	-0.286277442,	 0.621417465
	 0.102596056,	 0.854791259
	 0.41211259,	 0.809158333
	 0.761206879,	 0.545600654
END
BEGIN
	 50 ,	 0 
	 50 ,	 0 
	 50 ,	 0 
	 50 ,	 0 
	 50 ,	 0 
	 50 ,	 0 
	 50 ,	 0 
	 50 ,	 0 
	 50 ,	 0 
	 50 ,	 0 
	 50 ,	 0 
END
BEGIN
	 50 ,	 0 
	 50 ,	 0 
	 50 ,	 0 
	 50 ,	 0 
	 50 ,	 0 
	 50 ,	 0 
	 50 ,	 0 
	 50 ,	 0 
	 50 ,	 0 
	 50 ,	 0 
	 50 ,	 0 
END
